date Thu Jun 11 15:37:29.513 2026
base hex  timestamps absolute
internal events logged
Begin Triggerblock Thu Jun 11 15:37:29.535 2026
 0.000000 Start of measurement
 0.000000 1  7A6             Tx   d 8 03 22 F1 DD 00 00 00 00
 0.010021 1  7AE             Rx   d 8 10 10 62 F1 DD 31 30 30
 0.017956 1  7A6             Tx   d 8 30 08 64 00 00 00 00 00
 0.120029 1  7AE             Rx   d 8 21 30 30 00 00 00 00 00
 0.230002 1  7AE             Rx   d 8 22 00 00 00 AA AA AA AA
 0.357453 1  7A6             Tx   d 8 03 22 F1 00 00 00 00 00
 0.370177 1  7AE             Rx   d 8 06 62 F1 00 31 2E 30 AA
 0.497780 1  7A6             Tx   d 8 03 22 F1 8B 00 00 00 00
 0.499998 1  7AE             Rx   d 8 07 62 F1 8B 20 25 12 19
 0.617465 1  7A6             Tx   d 8 03 22 F1 8C 00 00 00 00
 0.619937 1  7AE             Rx   d 8 10 0B 62 F1 8C 30 30 30
 0.626088 1  7A6             Tx   d 8 30 08 64 00 00 00 00 00
 0.729935 1  7AE             Rx   d 8 21 30 30 30 30 31 AA AA
 0.843068 1  7A6             Tx   d 8 03 22 F1 93 00 00 00 00
 0.849984 1  7AE             Rx   d 8 07 62 F1 93 31 2E 30 30
 1.100926 1  7A6             Tx   d 8 02 10 01 00 00 00 00 00
 1.109970 1  7AE             Rx   d 8 06 50 01 00 32 01 F4 AA
 1.306384 1  7A6             Tx   d 8 02 10 02 00 00 00 00 00
 1.340476 1  7AE             Rx   d 8 06 50 02 00 32 00 C8 00
 1.537051 1  7A6             Tx   d 8 02 10 03 00 00 00 00 00
 1.540704 1  7AE             Rx   d 8 06 50 03 00 32 00 C8 00
 1.756563 1  7A6             Tx   d 8 02 10 FF 00 00 00 00 00
 4.031891 1  7A6             Tx   d 8 01 10 00 00 00 00 00 00
 6.293460 1  7A6             Tx   d 8 02 10 03 00 00 00 00 00
 6.300439 1  7AE             Rx   d 8 06 50 03 00 32 00 C8 00
 6.365843 1  7A6             Tx   d 8 03 19 02 08 00 00 00 00
 11.393126 1  7A6             Tx   d 8 03 19 0F 08 00 00 00 00
 11.403214 1  7AE             Rx   d 8 03 7F 19 12 AA AA AA AA
 11.467810 1  7A6             Tx   d 8 03 19 0E 08 00 00 00 00
 11.473100 1  7AE             Rx   d 8 03 7F 19 12 AA AA AA AA
 11.538130 1  7A6             Tx   d 8 03 19 FF 08 00 00 00 00
 11.543203 1  7AE             Rx   d 8 03 7F 19 12 AA AA AA AA
 11.793608 1  7A6             Tx   d 8 02 10 01 00 00 00 00 00
 11.803158 1  7AE             Rx   d 8 06 50 01 00 32 01 F4 AA
 11.866387 1  7A6             Tx   d 8 03 19 02 08 00 00 00 00
 11.873132 1  7AE             Rx   d 8 03 59 02 00 AA AA AA AA
 11.938666 1  7A6             Tx   d 8 04 14 FF FF FF 00 00 00
 11.943426 1  7AE             Rx   d 8 01 54 AA AA AA AA AA AA
 12.004678 1  7A6             Tx   d 8 03 22 B3 02 00 00 00 00
 12.013125 1  7AE             Rx   d 8 10 09 62 B3 02 FF FF 00
 12.018991 1  7A6             Tx   d 8 30 08 64 00 00 00 00 00
 12.123065 1  7AE             Rx   d 8 21 00 00 86 AA AA AA AA
 12.235680 1  7A6             Tx   d 8 03 22 B3 03 00 00 00 00
 12.243176 1  7AE             Rx   d 8 10 0B 62 B3 03 FF FF FF
 12.249122 1  7A6             Tx   d 8 30 08 64 00 00 00 00 00
 12.353128 1  7AE             Rx   d 8 21 01 48 00 00 01 AA AA
 12.466066 1  7A6             Tx   d 8 03 22 F1 EF 00 00 00 00
 12.473139 1  7AE             Rx   d 8 10 2B 62 F1 EF 07 A6 0B
 12.478621 1  7A6             Tx   d 8 30 08 64 00 00 00 00 00
 12.583086 1  7AE             Rx   d 8 21 52 31 30 20 4D 51 34
 12.703024 1  7AE             Rx   d 8 22 2F 31 2F 30 0C 52 31
 12.813126 1  7AE             Rx   d 8 23 35 35 20 4D 51 34 2F
 12.923058 1  7AE             Rx   d 8 24 31 2F 30 0C 52 31 35
 13.033127 1  7AE             Rx   d 8 25 36 20 4D 51 34 2F 31
 13.143067 1  7AE             Rx   d 8 26 2F 30 AA AA AA AA AA
 13.258266 1  7A6             Tx   d 8 03 22 F1 00 00 00 00 00
 13.263130 1  7AE             Rx   d 8 06 62 F1 00 31 2E 30 AA
 13.380034 1  7A6             Tx   d 8 03 22 F1 87 00 00 00 00
 13.383217 1  7AE             Rx   d 8 10 0D 62 F1 87 39 33 34
 13.389987 1  7A6             Tx   d 8 30 08 64 00 00 00 00 00
 13.503027 1  7AE             Rx   d 8 21 44 38 47 42 35 31 30
 13.615618 1  7A6             Tx   d 8 03 22 F1 8B 00 00 00 00
 13.623144 1  7AE             Rx   d 8 07 62 F1 8B 20 25 12 19
 13.739182 1  7A6             Tx   d 8 03 22 F1 8C 00 00 00 00
 13.743335 1  7AE             Rx   d 8 10 0B 62 F1 8C 30 30 30
 13.750144 1  7A6             Tx   d 8 30 08 64 00 00 00 00 00
 13.853077 1  7AE             Rx   d 8 21 30 30 30 30 31 AA AA
 13.970746 1  7A6             Tx   d 8 03 22 F1 91 00 00 00 00
 13.973168 1  7AE             Rx   d 8 07 62 F1 91 31 2E 30 30
 14.141843 1  7A6             Tx   d 8 03 22 F1 93 00 00 00 00
 14.153598 1  7AE             Rx   d 8 07 62 F1 93 31 2E 30 30
 14.276680 1  7A6             Tx   d 8 03 22 F1 C1 00 00 00 00
 14.283156 1  7AE             Rx   d 8 03 7F 22 22 AA AA AA AA
 14.399316 1  7A6             Tx   d 8 03 22 F1 C2 00 00 00 00
 14.403184 1  7AE             Rx   d 8 03 7F 22 12 AA AA AA AA
 14.522730 1  7A6             Tx   d 8 03 22 F1 95 00 00 00 00
 14.533190 1  7AE             Rx   d 8 07 62 F1 95 31 2E 30 30
 14.651724 1  7A6             Tx   d 8 03 22 F1 A0 00 00 00 00
 14.663288 1  7AE             Rx   d 8 07 62 F1 A0 31 2E 30 30
 14.783026 1  7A6             Tx   d 8 03 22 F1 A1 00 00 00 00
 14.793263 1  7AE             Rx   d 8 07 62 F1 A1 53 31 31 30
 14.914264 1  7A6             Tx   d 8 03 22 F1 B0 00 00 00 00
 14.923155 1  7AE             Rx   d 8 04 62 F1 B0 01 AA AA AA
 15.043703 1  7A6             Tx   d 8 03 22 F1 B1 00 00 00 00
 15.053154 1  7AE             Rx   d 8 07 62 F1 B1 31 2E 30 30
 15.172360 1  7A6             Tx   d 8 03 22 F1 DD 00 00 00 00
 15.183198 1  7AE             Rx   d 8 10 10 62 F1 DD 31 30 30
 15.192228 1  7A6             Tx   d 8 30 08 64 00 00 00 00 00
 15.303070 1  7AE             Rx   d 8 21 30 30 00 00 00 00 00
 15.413137 1  7AE             Rx   d 8 22 00 00 00 AA AA AA AA
 15.530358 1  7A6             Tx   d 8 03 22 F1 97 00 00 00 00
 15.533141 1  7AE             Rx   d 8 07 62 F1 97 4D 46 53 57
 15.780628 1  7A6             Tx   d 8 02 10 03 00 00 00 00 00
 15.783446 1  7AE             Rx   d 8 06 50 03 00 32 01 F4 AA
 15.853275 1  7A6             Tx   d 8 03 19 02 08 00 00 00 00
 15.863297 1  7AE             Rx   d 8 03 59 02 00 AA AA AA AA
 15.930666 1  7A6             Tx   d 8 04 14 FF FF FF 00 00 00
 15.933319 1  7AE             Rx   d 8 01 54 AA AA AA AA AA AA
 15.996290 1  7A6             Tx   d 8 03 22 B3 02 00 00 00 00
 16.003154 1  7AE             Rx   d 8 10 09 62 B3 02 FF FF 00
 16.008477 1  7A6             Tx   d 8 30 08 64 00 00 00 00 00
 16.113061 1  7AE             Rx   d 8 21 00 00 86 AA AA AA AA
 16.230426 1  7A6             Tx   d 8 03 22 B3 03 00 00 00 00
 16.233173 1  7AE             Rx   d 8 10 0B 62 B3 03 FF FF FF
 16.238659 1  7A6             Tx   d 8 30 08 64 00 00 00 00 00
 16.343080 1  7AE             Rx   d 8 21 01 48 00 00 01 AA AA
 16.464390 1  7A6             Tx   d 8 03 22 F1 EF 00 00 00 00
 16.472711 1  7AE             Rx   d 8 10 2B 62 F1 EF 07 A6 0B
 16.479381 1  7A6             Tx   d 8 30 08 64 00 00 00 00 00
 16.582669 1  7AE             Rx   d 8 21 52 31 30 20 4D 51 34
 16.702592 1  7AE             Rx   d 8 22 2F 31 2F 30 0C 52 31
 16.812679 1  7AE             Rx   d 8 23 35 35 20 4D 51 34 2F
 16.922616 1  7AE             Rx   d 8 24 31 2F 30 0C 52 31 35
 17.032679 1  7AE             Rx   d 8 25 36 20 4D 51 34 2F 31
 17.142653 1  7AE             Rx   d 8 26 2F 30 AA AA AA AA AA
 17.260653 1  7A6             Tx   d 8 03 22 F1 00 00 00 00 00
 17.262745 1  7AE             Rx   d 8 06 62 F1 00 31 2E 30 AA
 17.382015 1  7A6             Tx   d 8 03 22 F1 87 00 00 00 00
 17.392727 1  7AE             Rx   d 8 10 0D 62 F1 87 39 33 34
 17.397663 1  7A6             Tx   d 8 30 08 64 00 00 00 00 00
 17.502613 1  7AE             Rx   d 8 21 44 38 47 42 35 31 30
 17.620136 1  7A6             Tx   d 8 03 22 F1 8B 00 00 00 00
 17.622700 1  7AE             Rx   d 8 07 62 F1 8B 20 25 12 19
 17.741360 1  7A6             Tx   d 8 03 22 F1 8C 00 00 00 00
 17.742722 1  7AE             Rx   d 8 10 0B 62 F1 8C 30 30 30
 17.751774 1  7A6             Tx   d 8 30 08 64 00 00 00 00 00
 17.862633 1  7AE             Rx   d 8 21 30 30 30 30 31 AA AA
 17.980902 1  7A6             Tx   d 8 03 22 F1 91 00 00 00 00
 17.982787 1  7AE             Rx   d 8 07 62 F1 91 31 2E 30 30
 18.102304 1  7A6             Tx   d 8 03 22 F1 93 00 00 00 00
 18.112733 1  7AE             Rx   d 8 07 62 F1 93 31 2E 30 30
 18.231906 1  7A6             Tx   d 8 03 22 F1 C1 00 00 00 00
 18.232744 1  7AE             Rx   d 8 03 7F 22 22 AA AA AA AA
 18.350265 1  7A6             Tx   d 8 03 22 F1 C2 00 00 00 00
 18.352792 1  7AE             Rx   d 8 03 7F 22 12 AA AA AA AA
 18.471710 1  7A6             Tx   d 8 03 22 F1 95 00 00 00 00
 18.482692 1  7AE             Rx   d 8 07 62 F1 95 31 2E 30 30
 18.602714 1  7A6             Tx   d 8 03 22 F1 A0 00 00 00 00
 18.612665 1  7AE             Rx   d 8 07 62 F1 A0 31 2E 30 30
 18.732219 1  7A6             Tx   d 8 03 22 F1 A1 00 00 00 00
 18.742782 1  7AE             Rx   d 8 07 62 F1 A1 53 31 31 30
 18.862662 1  7A6             Tx   d 8 03 22 F1 B0 00 00 00 00
 18.872862 1  7AE             Rx   d 8 04 62 F1 B0 01 AA AA AA
 18.992695 1  7A6             Tx   d 8 03 22 F1 B1 00 00 00 00
 19.002785 1  7AE             Rx   d 8 07 62 F1 B1 31 2E 30 30
 19.121583 1  7A6             Tx   d 8 03 22 F1 DD 00 00 00 00
 19.122866 1  7AE             Rx   d 8 10 10 62 F1 DD 31 30 30
 19.128768 1  7A6             Tx   d 8 30 08 64 00 00 00 00 00
 19.232678 1  7AE             Rx   d 8 21 30 30 00 00 00 00 00
 19.342647 1  7AE             Rx   d 8 22 00 00 00 AA AA AA AA
 19.460331 1  7A6             Tx   d 8 03 22 F1 97 00 00 00 00
 19.462710 1  7AE             Rx   d 8 07 62 F1 97 4D 46 53 57
 19.581360 1  7A6             Tx   d 8 03 22 F1 FF 00 00 00 00
 19.582712 1  7AE             Rx   d 8 03 7F 22 12 AA AA AA AA
 19.702971 1  7A6             Tx   d 8 01 22 00 00 00 00 00 00
 19.712727 1  7AE             Rx   d 8 03 7F 22 13 AA AA AA AA
 19.829614 1  7A6             Tx   d 8 03 22 D1 00 00 00 00 00
 19.833094 1  7AE             Rx   d 8 03 7F 22 31 AA AA AA AA
 19.952128 1  7A6             Tx   d 8 03 22 50 DD 00 00 00 00
 19.962753 1  7AE             Rx   d 8 03 7F 22 31 AA AA AA AA
 20.207926 1  7A6             Tx   d 8 02 10 02 00 00 00 00 00
 20.243125 1  7AE             Rx   d 8 06 50 02 00 32 00 C8 00
 20.310589 1  7A6             Tx   d 8 03 19 02 08 00 00 00 00
 25.338259 1  7A6             Tx   d 8 04 14 FF FF FF 00 00 00
 25.346098 1  7AE             Rx   d 8 01 54 AA AA AA AA AA AA
 25.538558 1  7A6             Tx   d 8 02 10 01 00 00 00 00 00
 25.545972 1  7AE             Rx   d 8 06 50 01 00 32 01 F4 AA
 25.741818 1  7A6             Tx   d 8 02 10 02 00 00 00 00 00
 25.775887 1  7AE             Rx   d 8 06 50 02 00 32 00 C8 00
 25.972066 1  7A6             Tx   d 8 02 10 03 00 00 00 00 00
 25.976017 1  7AE             Rx   d 8 06 50 03 00 32 00 C8 00
 26.173878 1  7A6             Tx   d 8 02 10 02 00 00 00 00 00
 26.175987 1  7AE             Rx   d 8 06 50 02 00 32 00 C8 00
 26.373292 1  7A6             Tx   d 8 02 10 01 00 00 00 00 00
 26.375913 1  ErrorFrame
 28.628168 1  7A6             Tx   d 8 02 10 03 00 00 00 00 00
 28.638731 1  7AE             Rx   d 8 06 50 03 00 32 01 F4 AA
 28.830711 1  7A6             Tx   d 8 02 10 01 00 00 00 00 00
 28.842210 1  7AE             Rx   d 8 06 50 01 00 32 01 F4 AA
 28.904783 1  7A6             Tx   d 8 02 27 11 00 00 00 00 00
 28.918655 1  7AE             Rx   d 8 03 7F 27 7F AA AA AA AA
 29.161622 1  7A6             Tx   d 8 02 10 03 00 00 00 00 00
 29.168642 1  7AE             Rx   d 8 06 50 03 00 32 01 F4 AA
 29.236709 1  7A6             Tx   d 8 02 27 22 00 00 00 00 00
 29.238702 1  7AE             Rx   d 8 03 7F 27 12 AA AA AA AA
 29.352098 1  7A6             Tx   d 8 01 27 00 00 00 00 00 00
 29.359005 1  7AE             Rx   d 8 03 7F 27 12 AA AA AA AA
 29.425831 1  7A6             Tx   d 8 02 27 11 00 00 00 00 00
 29.429752 1  7AE             Rx   d 8 10 0A 67 11 0C 87 97 51
 29.435060 1  7A6             Tx   d 8 30 08 64 00 00 00 00 00
 29.539675 1  7AE             Rx   d 8 21 98 7D 29 7F AA AA AA
 31.705157 1  7A6             Tx   d 8 02 10 01 00 00 00 00 00
 31.719296 1  7AE             Rx   d 8 06 50 01 00 32 01 F4 AA
 31.785942 1  7A6             Tx   d 8 02 27 11 00 00 00 00 00
 31.789251 1  7AE             Rx   d 8 03 7F 27 7F AA AA AA AA
 32.030951 1  7A6             Tx   d 8 02 10 03 00 00 00 00 00
 32.039235 1  7AE             Rx   d 8 06 50 03 00 32 01 F4 AA
 32.105403 1  7A6             Tx   d 8 02 27 11 00 00 00 00 00
 32.120402 1  7AE             Rx   d 8 10 0A 67 11 42 51 F9 84
 32.126125 1  7A6             Tx   d 8 30 08 64 00 00 00 00 00
 32.230355 1  7AE             Rx   d 8 21 73 3A 51 6C AA AA AA
 32.901142 1  7A6             Tx   d 8 10 0A 27 12 57 7E B7 3E
 32.904420 1  7AE             Rx   d 8 30 08 0A AA AA AA AA AA
 32.922632 1  7A6             Tx   d 8 21 B8 79 AC CA 00 00 00
 32.932332 1  7AE             Rx   d 8 03 7F 27 35 AA AA AA AA
End TriggerBlock
