date Mon Jun 29 11:50:06.72 2026
base hex  timestamps absolute
internal events logged
Begin Triggerblock Mon Jun 29 11:50:06.272 2026
 0.000000 Start of measurement
 0.000000 1  7A6             Tx   d 8 02 10 02 00 00 00 00 00
 0.039093 1  7AE             Rx   d 8 06 50 02 00 32 00 C8 00
 0.253873 1  7A6             Tx   d 8 02 10 D1 00 00 00 00 00
 2.528542 1  7A6             Tx   d 8 02 10 01 00 00 00 00 00
 2.529038 1  ErrorFrame
 4.799679 1  7A6             Tx   d 8 02 10 02 00 00 00 00 00
 4.832147 1  7AE             Rx   d 8 06 50 02 00 32 00 C8 00
 5.041355 1  7A6             Tx   d 8 02 10 02 00 00 00 00 00
 5.042078 1  7AE             Rx   d 8 06 50 02 00 32 00 C8 00
 5.248565 1  7A6             Tx   d 8 02 10 02 00 00 00 00 00
 5.252255 1  7AE             Rx   d 8 06 50 02 00 32 00 C8 00
 5.476028 1  7A6             Tx   d 8 02 10 02 00 00 00 00 00
 5.482211 1  7AE             Rx   d 8 06 50 02 00 32 00 C8 00
 5.687835 1  7A6             Tx   d 8 02 10 02 00 00 00 00 00
 5.692245 1  7AE             Rx   d 8 06 50 02 00 32 00 C8 00
 5.899704 1  7A6             Tx   d 8 02 10 02 00 00 00 00 00
 5.902246 1  7AE             Rx   d 8 06 50 02 00 32 00 C8 00
 6.024074 1  7A6             Tx   d 8 02 11 03 00 00 00 00 00
 6.032245 1  7AE             Rx   d 8 02 51 03 00 32 00 C8 00
 6.107239 1  7A6             Tx   d 8 04 14 80 00 FF 00 00 00
 6.115074 1  7AE             Rx   d 8 01 54 AA AA AA AA AA AA
 6.182876 1  7A6             Tx   d 8 04 14 FF FF FF 00 00 00
 6.185189 1  7AE             Rx   d 8 01 54 AA AA AA AA AA AA
 6.259488 1  7A6             Tx   d 8 03 19 02 01 00 00 00 00
 6.264983 1  7AE             Rx   d 8 03 59 02 00 AA AA AA AA
 6.336558 1  7A6             Tx   d 8 03 19 02 08 00 00 00 00
 6.345015 1  7AE             Rx   d 8 03 59 02 00 AA AA AA AA
 6.556650 1  7A6             Tx   d 8 02 10 01 00 00 00 00 00
 6.565020 1  7AE             Rx   d 8 06 50 01 00 32 01 F4 AA
 6.780063 1  7A6             Tx   d 8 02 10 03 00 00 00 00 00
 6.788602 1  7AE             Rx   d 8 06 50 03 00 32 01 F4 AA
 7.001335 1  7A6             Tx   d 8 02 10 03 00 00 00 00 00
 7.005025 1  7AE             Rx   d 8 06 50 03 00 32 01 F4 AA
 7.212136 1  7A6             Tx   d 8 02 10 03 00 00 00 00 00
 7.215042 1  7AE             Rx   d 8 06 50 03 00 32 01 F4 AA
 7.421495 1  7A6             Tx   d 8 02 10 03 00 00 00 00 00
 7.424946 1  7AE             Rx   d 8 06 50 03 00 32 01 F4 AA
 7.629545 1  7A6             Tx   d 8 02 10 03 00 00 00 00 00
 7.635094 1  7AE             Rx   d 8 06 50 03 00 32 01 F4 AA
 7.843206 1  7A6             Tx   d 8 02 10 03 00 00 00 00 00
 7.845084 1  7AE             Rx   d 8 06 50 03 00 32 01 F4 AA
 8.050517 1  7A6             Tx   d 8 02 10 03 00 00 00 00 00
 8.055107 1  7AE             Rx   d 8 06 50 03 00 32 01 F4 AA
 8.260572 1  7A6             Tx   d 8 02 10 03 00 00 00 00 00
 8.265081 1  7AE             Rx   d 8 06 50 03 00 32 01 F4 AA
 8.474050 1  7A6             Tx   d 8 02 10 03 00 00 00 00 00
 8.485108 1  7AE             Rx   d 8 06 50 03 00 32 01 F4 AA
 8.694423 1  7A6             Tx   d 8 02 10 03 00 00 00 00 00
 8.705130 1  7AE             Rx   d 8 06 50 03 00 32 01 F4 AA
 8.828761 1  7A6             Tx   d 8 02 11 03 00 00 00 00 00
 8.835131 1  7AE             Rx   d 8 03 7F 11 12 AA AA AA AA
 8.934427 1  0               Tx   d 8 30 08 0A 00 00 00 00 00
 8.945759 1  0               Tx   d 8 30 08 0A 00 00 00 00 00
 8.958558 1  0               Tx   d 8 03 28 03 03 00 00 00 00
 9.033319 1  0               Tx   d 8 03 28 03 02 00 00 00 00
 9.140625 1  0               Tx   d 8 03 28 02 03 00 00 00 00
 11.270850 1  0               Tx   d 8 03 28 02 02 00 00 00 00
 13.405213 1  0               Tx   d 8 03 28 01 03 00 00 00 00
 15.524935 1  0               Tx   d 8 03 28 01 02 00 00 00 00
 17.596488 1  0               Tx   d 8 03 28 00 03 00 00 00 00
 19.718168 1  0               Tx   d 8 03 28 00 02 00 00 00 00
 21.987586 1  7A6             Tx   d 8 02 10 01 00 00 00 00 00
 21.995563 1  7AE             Rx   d 8 06 50 01 00 32 01 F4 AA
 22.260792 1  7A6             Tx   d 8 02 10 01 00 00 00 00 00
 22.265543 1  7AE             Rx   d 8 06 50 01 00 32 01 F4 AA
 22.553079 1  7A6             Tx   d 8 02 10 01 00 00 00 00 00
 22.555552 1  7AE             Rx   d 8 06 50 01 00 32 01 F4 AA
 22.694750 1  7A6             Tx   d 8 02 27 12 00 00 00 00 00
 22.706049 1  7AE             Rx   d 8 03 7F 27 7F AA AA AA AA
 22.832048 1  7A6             Tx   d 8 02 27 11 00 00 00 00 00
 22.835848 1  7AE             Rx   d 8 03 7F 27 7F AA AA AA AA
 23.103629 1  7A6             Tx   d 8 02 10 03 00 00 00 00 00
 23.105664 1  7AE             Rx   d 8 06 50 03 00 32 01 F4 AA
 23.380909 1  7A6             Tx   d 8 02 10 03 00 00 00 00 00
 23.385617 1  7AE             Rx   d 8 06 50 03 00 32 01 F4 AA
 23.658547 1  7A6             Tx   d 8 02 10 03 00 00 00 00 00
 23.665663 1  7AE             Rx   d 8 06 50 03 00 32 01 F4 AA
 23.798106 1  7A6             Tx   d 8 01 2F 00 00 00 00 00 00
 26.258588 1  7A6             Tx   d 8 02 10 01 00 00 00 00 00
 26.265864 1  7AE             Rx   d 8 06 50 01 00 32 01 F4 AA
 26.589518 1  7A6             Tx   d 8 02 10 01 00 00 00 00 00
 26.595826 1  7AE             Rx   d 8 06 50 01 00 32 01 F4 AA
 26.924304 1  7A6             Tx   d 8 02 10 03 00 00 00 00 00
 26.925689 1  7AE             Rx   d 8 06 50 03 00 32 01 F4 AA
 27.212195 1  7A6             Tx   d 8 02 10 03 00 00 00 00 00
 27.215913 1  7AE             Rx   d 8 06 50 03 00 32 01 F4 AA
 27.491547 1  7A6             Tx   d 8 02 10 03 00 00 00 00 00
 27.495917 1  7AE             Rx   d 8 06 50 03 00 32 01 F4 AA
 27.628062 1  7A6             Tx   d 8 02 27 02 00 00 00 00 00
 27.635990 1  7AE             Rx   d 8 03 7F 27 12 AA AA AA AA
 27.762288 1  7A6             Tx   d 8 02 27 01 00 00 00 00 00
 27.765889 1  7AE             Rx   d 8 03 7F 27 12 AA AA AA AA
 28.037469 1  7A6             Tx   d 8 02 10 03 00 00 00 00 00
 28.045905 1  7AE             Rx   d 8 06 50 03 00 32 01 F4 AA
 28.310378 1  7A6             Tx   d 8 02 10 03 00 00 00 00 00
 28.315810 1  7AE             Rx   d 8 06 50 03 00 32 01 F4 AA
 28.598687 1  7A6             Tx   d 8 02 10 03 00 00 00 00 00
 28.605886 1  7AE             Rx   d 8 06 50 03 00 32 01 F4 AA
 28.872322 1  7A6             Tx   d 8 02 10 03 00 00 00 00 00
 28.875772 1  7AE             Rx   d 8 06 50 03 00 32 01 F4 AA
 29.141765 1  7A6             Tx   d 8 02 10 03 00 00 00 00 00
 29.145991 1  7AE             Rx   d 8 06 50 03 00 32 01 F4 AA
 29.413761 1  7A6             Tx   d 8 02 10 03 00 00 00 00 00
 29.415806 1  7AE             Rx   d 8 06 50 03 00 32 01 F4 AA
 29.681169 1  7A6             Tx   d 8 02 10 03 00 00 00 00 00
 29.686005 1  7AE             Rx   d 8 06 50 03 00 32 01 F4 AA
 29.952891 1  7A6             Tx   d 8 02 10 03 00 00 00 00 00
 29.955838 1  7AE             Rx   d 8 06 50 03 00 32 01 F4 AA
 30.221889 1  7A6             Tx   d 8 02 10 03 00 00 00 00 00
 30.226059 1  7AE             Rx   d 8 06 50 03 00 32 01 F4 AA
 30.498095 1  7A6             Tx   d 8 02 10 03 00 00 00 00 00
 30.509860 1  7AE             Rx   d 8 06 50 03 00 32 01 F4 AA
 30.652966 1  7A6             Tx   d 8 02 27 11 00 00 00 00 00
 30.657059 1  7AE             Rx   d 8 10 0A 67 11 D6 70 5C 31
 30.665121 1  7A6             Tx   d 8 30 08 0A 00 00 00 00 00
 30.677123 1  7AE             Rx   d 8 21 C8 E2 B3 73 AA AA AA
 48.323794 1  7A6             Tx   d 8 02 27 11 00 00 00 00 00
 48.328192 1  7AE             Rx   d 8 03 7F 27 7F AA AA AA AA
 48.459328 1  7A6             Tx   d 8 02 27 11 00 00 00 00 00
 48.468244 1  7AE             Rx   d 8 03 7F 27 7F AA AA AA AA
 48.602741 1  7A6             Tx   d 8 02 27 11 00 00 00 00 00
 48.608164 1  7AE             Rx   d 8 03 7F 27 7F AA AA AA AA
 48.738927 1  7A6             Tx   d 8 02 27 11 00 00 00 00 00
 48.748250 1  7AE             Rx   d 8 03 7F 27 7F AA AA AA AA
 48.876461 1  7A6             Tx   d 8 02 27 11 00 00 00 00 00
 48.878114 1  7AE             Rx   d 8 03 7F 27 7F AA AA AA AA
 49.008513 1  7A6             Tx   d 8 02 27 11 00 00 00 00 00
 49.018257 1  7AE             Rx   d 8 03 7F 27 7F AA AA AA AA
 49.132087 1  7A6             Tx   d 8 02 27 11 00 00 00 00 00
 49.138118 1  7AE             Rx   d 8 03 7F 27 7F AA AA AA AA
 49.259151 1  7A6             Tx   d 8 02 27 11 00 00 00 00 00
 49.268295 1  7AE             Rx   d 8 03 7F 27 7F AA AA AA AA
 49.411496 1  7A6             Tx   d 8 02 27 11 00 00 00 00 00
 49.418275 1  7AE             Rx   d 8 03 7F 27 7F AA AA AA AA
 49.546863 1  7A6             Tx   d 8 02 27 13 00 00 00 00 00
 49.548162 1  7AE             Rx   d 8 03 7F 27 7F AA AA AA AA
 49.677802 1  7A6             Tx   d 8 02 27 13 00 00 00 00 00
 49.688279 1  7AE             Rx   d 8 03 7F 27 7F AA AA AA AA
 49.813999 1  7A6             Tx   d 8 02 27 13 00 00 00 00 00
 49.818243 1  7AE             Rx   d 8 03 7F 27 7F AA AA AA AA
 49.946749 1  7A6             Tx   d 8 02 27 13 00 00 00 00 00
 49.948198 1  7AE             Rx   d 8 03 7F 27 7F AA AA AA AA
 50.078157 1  7A6             Tx   d 8 02 27 13 00 00 00 00 00
 50.088265 1  7AE             Rx   d 8 03 7F 27 7F AA AA AA AA
 50.214524 1  7A6             Tx   d 8 02 27 13 00 00 00 00 00
 50.218206 1  7AE             Rx   d 8 03 7F 27 7F AA AA AA AA
 50.347050 1  7A6             Tx   d 8 02 27 13 00 00 00 00 00
 50.348233 1  7AE             Rx   d 8 03 7F 27 7F AA AA AA AA
 50.482335 1  7A6             Tx   d 8 02 27 13 00 00 00 00 00
 50.488209 1  7AE             Rx   d 8 03 7F 27 7F AA AA AA AA
 50.618830 1  7A6             Tx   d 8 02 27 13 00 00 00 00 00
 50.628325 1  7AE             Rx   d 8 03 7F 27 7F AA AA AA AA
 50.755088 1  7A6             Tx   d 8 02 27 13 00 00 00 00 00
 50.758224 1  7AE             Rx   d 8 03 7F 27 7F AA AA AA AA
 50.888024 1  7A6             Tx   d 8 10 0B 2E F1 97 4D 4B 42
 50.892221 1  7AE             Rx   d 8 30 08 0A AA AA AA AA AA
 50.909858 1  7A6             Tx   d 8 21 44 4D 4B 42 44 00 00
 50.918362 1  7AE             Rx   d 8 03 7F 2E 22 AA AA AA AA
 50.992673 1  7A6             Tx   d 8 10 08 2E F1 95 30 31 2E
 50.998736 1  7AE             Rx   d 8 30 08 0A AA AA AA AA AA
 51.021324 1  7A6             Tx   d 8 21 30 30 00 00 00 00 00
 51.028351 1  7AE             Rx   d 8 03 7F 2E 22 AA AA AA AA
 51.094331 1  7A6             Tx   d 8 10 16 2E F1 C1 A6 32 F7
 51.098337 1  7AE             Rx   d 8 30 08 0A AA AA AA AA AA
 51.117665 1  7A6             Tx   d 8 21 CD 4D F6 CD A6 04 EB
 51.134501 1  7A6             Tx   d 8 22 7E 3A 2E 85 0A 39 A6
 51.146404 1  7A6             Tx   d 8 23 32 F7 00 00 00 00 00
 51.148269 1  7AE             Rx   d 8 03 7F 2E 22 AA AA AA AA
 51.221508 1  7A6             Tx   d 8 10 0B 2E F1 93 30 31 2E
 51.222256 1  7AE             Rx   d 8 30 08 0A AA AA AA AA AA
 51.239449 1  7A6             Tx   d 8 21 30 30 2E 30 30 00 00
 51.248316 1  7AE             Rx   d 8 03 7F 2E 22 AA AA AA AA
 51.319592 1  7A6             Tx   d 8 10 0D 2E F1 91 30 31 2E
 51.322776 1  7AE             Rx   d 8 30 08 0A AA AA AA AA AA
 51.345060 1  7A6             Tx   d 8 21 30 30 30 31 2E 30 30
 51.348259 1  7AE             Rx   d 8 03 7F 2E 22 AA AA AA AA
 51.423439 1  7A6             Tx   d 8 10 11 2E F1 87 39 36 35
 51.428246 1  7AE             Rx   d 8 30 08 0A AA AA AA AA AA
 51.445588 1  7A6             Tx   d 8 21 34 30 44 59 30 30 30
 51.456249 1  7A6             Tx   d 8 22 36 35 34 30 00 00 00
 51.458401 1  7AE             Rx   d 8 03 7F 2E 22 AA AA AA AA
 51.529174 1  7A6             Tx   d 8 10 14 2E F1 8C 61 38 31
 51.532288 1  7AE             Rx   d 8 30 08 0A AA AA AA AA AA
 51.555086 1  7A6             Tx   d 8 21 31 32 33 34 35 37 39
 51.565485 1  7A6             Tx   d 8 22 31 32 33 34 35 37 39
 51.568363 1  7AE             Rx   d 8 03 7F 2E 22 AA AA AA AA
 51.634687 1  7A6             Tx   d 8 10 0A 2E F1 8B 00 00 00
 51.638385 1  7AE             Rx   d 8 30 08 0A AA AA AA AA AA
 51.657500 1  7A6             Tx   d 8 21 00 00 00 00 00 00 00
 51.668455 1  7AE             Rx   d 8 03 7F 2E 22 AA AA AA AA
 51.753875 1  7A6             Tx   d 8 10 0B 2E F1 A1 61 38 31
 51.758285 1  7AE             Rx   d 8 30 08 0A AA AA AA AA AA
 51.776110 1  7A6             Tx   d 8 21 32 61 38 31 32 00 00
 51.788317 1  7AE             Rx   d 8 03 7F 2E 22 AA AA AA AA
 51.998479 1  7A6             Tx   d 8 02 10 01 00 00 00 00 00
 52.008390 1  7AE             Rx   d 8 06 50 01 00 32 01 F4 AA
 52.282481 1  7A6             Tx   d 8 02 10 01 00 00 00 00 00
 52.288528 1  7AE             Rx   d 8 06 50 01 00 32 01 F4 AA
 52.560061 1  7A6             Tx   d 8 02 10 01 00 00 00 00 00
 52.568419 1  7AE             Rx   d 8 06 50 01 00 32 01 F4 AA
 52.832634 1  7A6             Tx   d 8 02 10 01 00 00 00 00 00
 52.838322 1  7AE             Rx   d 8 06 50 01 00 32 01 F4 AA
 53.104036 1  7A6             Tx   d 8 02 10 01 00 00 00 00 00
 53.108420 1  7AE             Rx   d 8 06 50 01 00 32 01 F4 AA
 53.385520 1  7A6             Tx   d 8 02 10 01 00 00 00 00 00
 53.388435 1  7AE             Rx   d 8 06 50 01 00 32 01 F4 AA
 53.664173 1  7A6             Tx   d 8 02 10 01 00 00 00 00 00
 53.668466 1  7AE             Rx   d 8 06 50 01 00 32 01 F4 AA
 53.935983 1  7A6             Tx   d 8 02 10 01 00 00 00 00 00
 53.938338 1  7AE             Rx   d 8 06 50 01 00 32 01 F4 AA
 54.205517 1  7A6             Tx   d 8 02 10 01 00 00 00 00 00
 54.208456 1  7AE             Rx   d 8 06 50 01 00 32 01 F4 AA
 54.479560 1  7A6             Tx   d 8 02 10 01 00 00 00 00 00
 54.488474 1  7AE             Rx   d 8 06 50 01 00 32 01 F4 AA
 54.616615 1  7A6             Tx   d 8 02 27 11 00 00 00 00 00
 54.618440 1  7AE             Rx   d 8 03 7F 27 7F AA AA AA AA
 54.735360 1  7A6             Tx   d 8 02 27 11 00 00 00 00 00
 54.738465 1  7AE             Rx   d 8 03 7F 27 7F AA AA AA AA
 54.865899 1  7A6             Tx   d 8 02 27 11 00 00 00 00 00
 54.868467 1  7AE             Rx   d 8 03 7F 27 7F AA AA AA AA
 54.998687 1  7A6             Tx   d 8 02 27 11 00 00 00 00 00
 55.008584 1  7AE             Rx   d 8 03 7F 27 7F AA AA AA AA
 55.137529 1  7A6             Tx   d 8 02 27 11 00 00 00 00 00
 55.148593 1  7AE             Rx   d 8 03 7F 27 7F AA AA AA AA
 55.274484 1  7A6             Tx   d 8 02 27 11 00 00 00 00 00
 55.278529 1  7AE             Rx   d 8 03 7F 27 7F AA AA AA AA
 55.414067 1  7A6             Tx   d 8 02 27 11 00 00 00 00 00
 55.418519 1  7AE             Rx   d 8 03 7F 27 7F AA AA AA AA
 55.549778 1  7A6             Tx   d 8 02 27 11 00 00 00 00 00
 55.558546 1  7AE             Rx   d 8 03 7F 27 7F AA AA AA AA
 55.686745 1  7A6             Tx   d 8 02 27 11 00 00 00 00 00
 55.688516 1  7AE             Rx   d 8 03 7F 27 7F AA AA AA AA
 55.819292 1  7A6             Tx   d 8 02 27 11 00 00 00 00 00
 55.828613 1  7AE             Rx   d 8 03 7F 27 7F AA AA AA AA
 55.957945 1  7A6             Tx   d 8 02 27 12 00 00 00 00 00
 55.968617 1  7AE             Rx   d 8 03 7F 27 7F AA AA AA AA
 56.092607 1  7A6             Tx   d 8 02 27 12 00 00 00 00 00
 56.098656 1  7AE             Rx   d 8 03 7F 27 7F AA AA AA AA
 56.226543 1  7A6             Tx   d 8 02 27 12 00 00 00 00 00
 56.228513 1  7AE             Rx   d 8 03 7F 27 7F AA AA AA AA
 56.358324 1  7A6             Tx   d 8 02 27 12 00 00 00 00 00
 56.368717 1  7AE             Rx   d 8 03 7F 27 7F AA AA AA AA
 56.501935 1  7A6             Tx   d 8 02 27 12 00 00 00 00 00
 56.512599 1  7AE             Rx   d 8 03 7F 27 7F AA AA AA AA
 56.639410 1  7A6             Tx   d 8 02 27 12 00 00 00 00 00
 56.648628 1  7AE             Rx   d 8 03 7F 27 7F AA AA AA AA
 56.777684 1  7A6             Tx   d 8 02 27 12 00 00 00 00 00
 56.788696 1  7AE             Rx   d 8 03 7F 27 7F AA AA AA AA
 56.914712 1  7A6             Tx   d 8 02 27 12 00 00 00 00 00
 56.918596 1  7AE             Rx   d 8 03 7F 27 7F AA AA AA AA
 57.048099 1  7A6             Tx   d 8 02 27 12 00 00 00 00 00
 57.058739 1  7AE             Rx   d 8 03 7F 27 7F AA AA AA AA
 57.185717 1  7A6             Tx   d 8 02 27 12 00 00 00 00 00
 57.188574 1  7AE             Rx   d 8 03 7F 27 7F AA AA AA AA
 57.319213 1  7A6             Tx   d 8 10 0B 2E F1 97 4D 4B 42
 57.322619 1  7AE             Rx   d 8 30 08 0A AA AA AA AA AA
 57.339230 1  7A6             Tx   d 8 21 44 4D 4B 42 44 00 00
 57.348645 1  7AE             Rx   d 8 03 7F 2E 22 AA AA AA AA
 57.413824 1  7A6             Tx   d 8 10 08 2E F1 95 30 31 2E
 57.418694 1  7AE             Rx   d 8 30 08 0A AA AA AA AA AA
 57.437999 1  7A6             Tx   d 8 21 30 30 00 00 00 00 00
 57.448659 1  7AE             Rx   d 8 03 7F 2E 22 AA AA AA AA
 57.534657 1  7A6             Tx   d 8 10 16 2E F1 C1 A6 32 F7
 57.538646 1  7AE             Rx   d 8 30 08 0A AA AA AA AA AA
 57.556324 1  7A6             Tx   d 8 21 CD 4D F6 CD A6 04 EB
 57.567258 1  7A6             Tx   d 8 22 7E 3A 2E 85 0A 39 A6
 57.577826 1  7A6             Tx   d 8 23 32 F7 00 00 00 00 00
 57.589005 1  7AE             Rx   d 8 03 7F 2E 22 AA AA AA AA
 57.671333 1  7A6             Tx   d 8 10 0B 2E F1 93 30 31 2E
 57.672602 1  7AE             Rx   d 8 30 08 0A AA AA AA AA AA
 57.689453 1  7A6             Tx   d 8 21 30 30 2E 30 30 00 00
 57.698751 1  7AE             Rx   d 8 03 7F 2E 22 AA AA AA AA
 57.769898 1  7A6             Tx   d 8 10 0D 2E F1 91 30 31 2E
 57.772644 1  7AE             Rx   d 8 30 08 0A AA AA AA AA AA
 57.797084 1  7A6             Tx   d 8 21 30 30 30 31 2E 30 30
 57.798630 1  7AE             Rx   d 8 03 7F 2E 22 AA AA AA AA
 57.871762 1  7A6             Tx   d 8 10 11 2E F1 87 39 36 35
 57.872655 1  7AE             Rx   d 8 30 08 0A AA AA AA AA AA
 57.889658 1  7A6             Tx   d 8 21 34 30 44 59 30 30 30
 57.901407 1  7A6             Tx   d 8 22 36 35 34 30 00 00 00
 57.909008 1  7AE             Rx   d 8 03 7F 2E 22 AA AA AA AA
 57.994605 1  7A6             Tx   d 8 10 14 2E F1 8C 61 38 31
 57.998643 1  7AE             Rx   d 8 30 08 0A AA AA AA AA AA
 58.016059 1  7A6             Tx   d 8 21 31 32 33 34 35 37 39
 58.027410 1  7A6             Tx   d 8 22 31 32 33 34 35 37 39
 58.028722 1  7AE             Rx   d 8 03 7F 2E 22 AA AA AA AA
 58.098919 1  7A6             Tx   d 8 10 0A 2E F1 8B 00 00 00
 58.102882 1  7AE             Rx   d 8 30 08 0A AA AA AA AA AA
 58.125746 1  7A6             Tx   d 8 21 00 00 00 00 00 00 00
 58.128637 1  7AE             Rx   d 8 03 7F 2E 22 AA AA AA AA
 58.200775 1  7A6             Tx   d 8 10 0B 2E F1 A1 61 38 31
 58.202610 1  7AE             Rx   d 8 30 08 0A AA AA AA AA AA
 58.219730 1  7A6             Tx   d 8 21 32 61 38 31 32 00 00
 58.228689 1  7AE             Rx   d 8 03 7F 2E 22 AA AA AA AA
 58.443393 1  7A6             Tx   d 8 02 10 03 00 00 00 00 00
 58.448640 1  7AE             Rx   d 8 06 50 03 00 32 01 F4 AA
 58.716671 1  7A6             Tx   d 8 02 10 03 00 00 00 00 00
 58.718746 1  7AE             Rx   d 8 06 50 03 00 32 01 F4 AA
 58.987300 1  7A6             Tx   d 8 02 10 03 00 00 00 00 00
 58.988673 1  7AE             Rx   d 8 06 50 03 00 32 01 F4 AA
 59.275985 1  7A6             Tx   d 8 02 10 03 00 00 00 00 00
 59.278790 1  7AE             Rx   d 8 06 50 03 00 32 01 F4 AA
 59.577384 1  7A6             Tx   d 8 02 10 03 00 00 00 00 00
 59.588773 1  7AE             Rx   d 8 06 50 03 00 32 01 F4 AA
 59.862066 1  7A6             Tx   d 8 02 10 03 00 00 00 00 00
 59.868773 1  7AE             Rx   d 8 06 50 03 00 32 01 F4 AA
 60.136021 1  7A6             Tx   d 8 02 10 03 00 00 00 00 00
 60.138684 1  7AE             Rx   d 8 06 50 03 00 32 01 F4 AA
 60.406185 1  7A6             Tx   d 8 02 10 03 00 00 00 00 00
 60.408803 1  7AE             Rx   d 8 06 50 03 00 32 01 F4 AA
 60.676668 1  7A6             Tx   d 8 02 10 03 00 00 00 00 00
 60.678846 1  7AE             Rx   d 8 06 50 03 00 32 01 F4 AA
 60.948452 1  7A6             Tx   d 8 02 10 03 00 00 00 00 00
 60.958913 1  7AE             Rx   d 8 06 50 03 00 32 01 F4 AA
 61.224038 1  7A6             Tx   d 8 02 10 03 00 00 00 00 00
 61.228809 1  7AE             Rx   d 8 06 50 03 00 32 01 F4 AA
 61.501328 1  7A6             Tx   d 8 02 10 03 00 00 00 00 00
 61.512903 1  7AE             Rx   d 8 06 50 03 00 32 01 F4 AA
 61.825210 1  7A6             Tx   d 8 02 10 03 00 00 00 00 00
 61.828928 1  7AE             Rx   d 8 06 50 03 00 32 01 F4 AA
 62.088606 1  7A6             Tx   d 8 02 10 03 00 00 00 00 00
 62.099003 1  7AE             Rx   d 8 06 50 03 00 32 01 F4 AA
 62.384219 1  7A6             Tx   d 8 02 10 03 00 00 00 00 00
 62.388972 1  7AE             Rx   d 8 06 50 03 00 32 01 F4 AA
 62.657690 1  7A6             Tx   d 8 02 10 03 00 00 00 00 00
 62.658857 1  7AE             Rx   d 8 06 50 03 00 32 01 F4 AA
 62.925233 1  7A6             Tx   d 8 02 10 03 00 00 00 00 00
 62.928999 1  7AE             Rx   d 8 06 50 03 00 32 01 F4 AA
 63.197916 1  7A6             Tx   d 8 02 10 03 00 00 00 00 00
 63.209013 1  7AE             Rx   d 8 06 50 03 00 32 01 F4 AA
 63.489561 1  7A6             Tx   d 8 02 10 03 00 00 00 00 00
 63.499097 1  7AE             Rx   d 8 06 50 03 00 32 01 F4 AA
 63.821326 1  7A6             Tx   d 8 02 10 03 00 00 00 00 00
 63.829042 1  7AE             Rx   d 8 06 50 03 00 32 01 F4 AA
 64.094997 1  7A6             Tx   d 8 02 10 03 00 00 00 00 00
 64.098941 1  7AE             Rx   d 8 06 50 03 00 32 01 F4 AA
 64.366864 1  7A6             Tx   d 8 02 10 03 00 00 00 00 00
 64.369153 1  7AE             Rx   d 8 06 50 03 00 32 01 F4 AA
 64.699141 1  7A6             Tx   d 8 02 10 03 00 00 00 00 00
 64.709128 1  7AE             Rx   d 8 06 50 03 00 32 01 F4 AA
 64.982903 1  7A6             Tx   d 8 02 10 03 00 00 00 00 00
 64.989133 1  7AE             Rx   d 8 06 50 03 00 32 01 F4 AA
 65.255948 1  7A6             Tx   d 8 02 10 03 00 00 00 00 00
 65.258977 1  7AE             Rx   d 8 06 50 03 00 32 01 F4 AA
 65.541425 1  7A6             Tx   d 8 02 10 03 00 00 00 00 00
 65.549164 1  7AE             Rx   d 8 06 50 03 00 32 01 F4 AA
 65.816799 1  7A6             Tx   d 8 02 10 03 00 00 00 00 00
 65.819063 1  7AE             Rx   d 8 06 50 03 00 32 01 F4 AA
 66.086656 1  7A6             Tx   d 8 02 10 03 00 00 00 00 00
 66.089151 1  7AE             Rx   d 8 06 50 03 00 32 01 F4 AA
 66.357875 1  7A6             Tx   d 8 02 10 03 00 00 00 00 00
 66.359063 1  7AE             Rx   d 8 06 50 03 00 32 01 F4 AA
 66.500973 1  7A6             Tx   d 8 02 27 11 00 00 00 00 00
 66.514247 1  7AE             Rx   d 8 10 0A 67 11 43 C5 01 9F
 66.521627 1  7A6             Tx   d 8 30 08 0A 00 00 00 00 00
 66.540281 1  7AE             Rx   d 8 21 7D D6 FB 86 AA AA AA
 84.193408 1  7A6             Tx   d 8 02 27 11 00 00 00 00 00
 84.201210 1  7AE             Rx   d 8 03 7F 27 7F AA AA AA AA
 84.319771 1  7A6             Tx   d 8 02 27 11 00 00 00 00 00
 84.321297 1  7AE             Rx   d 8 03 7F 27 7F AA AA AA AA
 84.454935 1  7A6             Tx   d 8 02 27 11 00 00 00 00 00
 84.461216 1  7AE             Rx   d 8 03 7F 27 7F AA AA AA AA
 84.586866 1  7A6             Tx   d 8 02 27 11 00 00 00 00 00
 84.591249 1  7AE             Rx   d 8 03 7F 27 7F AA AA AA AA
 84.728405 1  7A6             Tx   d 8 02 27 11 00 00 00 00 00
 84.731185 1  7AE             Rx   d 8 03 7F 27 7F AA AA AA AA
 84.868812 1  7A6             Tx   d 8 02 27 11 00 00 00 00 00
 84.871205 1  7AE             Rx   d 8 03 7F 27 7F AA AA AA AA
 84.992933 1  7A6             Tx   d 8 02 27 11 00 00 00 00 00
 85.001255 1  7AE             Rx   d 8 03 7F 27 7F AA AA AA AA
 85.120079 1  7A6             Tx   d 8 02 27 11 00 00 00 00 00
 85.121280 1  7AE             Rx   d 8 03 7F 27 7F AA AA AA AA
 85.241976 1  7A6             Tx   d 8 02 27 11 00 00 00 00 00
 85.251352 1  7AE             Rx   d 8 03 7F 27 7F AA AA AA AA
 85.376052 1  7A6             Tx   d 8 02 27 11 00 00 00 00 00
 85.391367 1  7AE             Rx   d 8 03 7F 27 7F AA AA AA AA
 85.509139 1  7A6             Tx   d 8 02 27 11 00 00 00 00 00
 85.515290 1  7AE             Rx   d 8 03 7F 27 7F AA AA AA AA
 85.636507 1  7A6             Tx   d 8 02 27 11 00 00 00 00 00
 85.641325 1  7AE             Rx   d 8 03 7F 27 7F AA AA AA AA
 85.762842 1  7A6             Tx   d 8 02 27 11 00 00 00 00 00
 85.771283 1  7AE             Rx   d 8 03 7F 27 7F AA AA AA AA
 85.890656 1  7A6             Tx   d 8 02 27 11 00 00 00 00 00
 85.901288 1  7AE             Rx   d 8 03 7F 27 7F AA AA AA AA
 86.020166 1  7A6             Tx   d 8 02 27 11 00 00 00 00 00
 86.021327 1  7AE             Rx   d 8 03 7F 27 7F AA AA AA AA
 86.145307 1  7A6             Tx   d 8 02 27 11 00 00 00 00 00
 86.151304 1  7AE             Rx   d 8 03 7F 27 7F AA AA AA AA
 86.278715 1  7A6             Tx   d 8 02 27 11 00 00 00 00 00
 86.281323 1  7AE             Rx   d 8 03 7F 27 7F AA AA AA AA
 86.413650 1  7A6             Tx   d 8 02 27 11 00 00 00 00 00
 86.421413 1  7AE             Rx   d 8 03 7F 27 7F AA AA AA AA
 86.543681 1  7A6             Tx   d 8 02 27 11 00 00 00 00 00
 86.551450 1  7AE             Rx   d 8 03 7F 27 7F AA AA AA AA
 86.676801 1  7A6             Tx   d 8 02 27 11 00 00 00 00 00
 86.681379 1  7AE             Rx   d 8 03 7F 27 7F AA AA AA AA
 86.812573 1  7A6             Tx   d 8 02 27 11 00 00 00 00 00
 86.821450 1  7AE             Rx   d 8 03 7F 27 7F AA AA AA AA
 86.944489 1  7A6             Tx   d 8 02 27 11 00 00 00 00 00
 86.951561 1  7AE             Rx   d 8 03 7F 27 7F AA AA AA AA
 87.078703 1  7A6             Tx   d 8 02 27 11 00 00 00 00 00
 87.081353 1  7AE             Rx   d 8 03 7F 27 7F AA AA AA AA
 87.212508 1  7A6             Tx   d 8 02 27 11 00 00 00 00 00
 87.221479 1  7AE             Rx   d 8 03 7F 27 7F AA AA AA AA
 87.344433 1  7A6             Tx   d 8 02 27 11 00 00 00 00 00
 87.351744 1  7AE             Rx   d 8 03 7F 27 7F AA AA AA AA
 87.488699 1  7A6             Tx   d 8 02 27 11 00 00 00 00 00
 87.491353 1  7AE             Rx   d 8 03 7F 27 7F AA AA AA AA
 87.604651 1  7A6             Tx   d 8 02 27 11 00 00 00 00 00
 87.611293 1  7AE             Rx   d 8 03 7F 27 7F AA AA AA AA
 87.729806 1  7A6             Tx   d 8 02 27 11 00 00 00 00 00
 87.731408 1  7AE             Rx   d 8 03 7F 27 7F AA AA AA AA
 87.846507 1  7A6             Tx   d 8 02 27 12 00 00 00 00 00
 87.851325 1  7AE             Rx   d 8 03 7F 27 7F AA AA AA AA
 87.965466 1  7A6             Tx   d 8 02 27 12 00 00 00 00 00
 87.971310 1  7AE             Rx   d 8 03 7F 27 7F AA AA AA AA
 88.090890 1  7A6             Tx   d 8 02 27 12 00 00 00 00 00
 88.101470 1  7AE             Rx   d 8 03 7F 27 7F AA AA AA AA
 88.216913 1  7A6             Tx   d 8 02 27 12 00 00 00 00 00
 88.221338 1  7AE             Rx   d 8 03 7F 27 7F AA AA AA AA
 88.335389 1  7A6             Tx   d 8 02 27 12 00 00 00 00 00
 88.341367 1  7AE             Rx   d 8 03 7F 27 7F AA AA AA AA
 88.462323 1  7A6             Tx   d 8 02 27 12 00 00 00 00 00
 88.471516 1  7AE             Rx   d 8 03 7F 27 7F AA AA AA AA
 88.589604 1  7A6             Tx   d 8 02 27 12 00 00 00 00 00
 88.591361 1  7AE             Rx   d 8 03 7F 27 7F AA AA AA AA
 88.704569 1  7A6             Tx   d 8 02 27 12 00 00 00 00 00
 88.711364 1  7AE             Rx   d 8 03 7F 27 7F AA AA AA AA
 88.831975 1  7A6             Tx   d 8 02 27 12 00 00 00 00 00
 88.841453 1  7AE             Rx   d 8 03 7F 27 7F AA AA AA AA
 88.959353 1  7A6             Tx   d 8 02 27 12 00 00 00 00 00
 88.961362 1  7AE             Rx   d 8 03 7F 27 7F AA AA AA AA
 89.075237 1  7A6             Tx   d 8 02 27 12 00 00 00 00 00
 89.081379 1  7AE             Rx   d 8 03 7F 27 7F AA AA AA AA
 89.202991 1  7A6             Tx   d 8 02 27 12 00 00 00 00 00
 89.211586 1  7AE             Rx   d 8 03 7F 27 7F AA AA AA AA
 89.325686 1  7A6             Tx   d 8 02 27 12 00 00 00 00 00
 89.331452 1  7AE             Rx   d 8 03 7F 27 7F AA AA AA AA
 89.446723 1  7A6             Tx   d 8 02 27 12 00 00 00 00 00
 89.451433 1  7AE             Rx   d 8 03 7F 27 7F AA AA AA AA
 89.577139 1  7A6             Tx   d 8 02 27 12 00 00 00 00 00
 89.591618 1  7AE             Rx   d 8 03 7F 27 7F AA AA AA AA
 89.720102 1  7A6             Tx   d 8 02 27 12 00 00 00 00 00
 89.721499 1  7AE             Rx   d 8 03 7F 27 7F AA AA AA AA
 89.835994 1  7A6             Tx   d 8 02 27 12 00 00 00 00 00
 89.841414 1  7AE             Rx   d 8 03 7F 27 7F AA AA AA AA
 89.966488 1  7A6             Tx   d 8 02 27 12 00 00 00 00 00
 89.971495 1  7AE             Rx   d 8 03 7F 27 7F AA AA AA AA
 90.085278 1  7A6             Tx   d 8 02 27 12 00 00 00 00 00
 90.091459 1  7AE             Rx   d 8 03 7F 27 7F AA AA AA AA
 90.205093 1  7A6             Tx   d 8 02 27 12 00 00 00 00 00
 90.211450 1  7AE             Rx   d 8 03 7F 27 7F AA AA AA AA
 90.332363 1  7A6             Tx   d 8 02 27 12 00 00 00 00 00
 90.341578 1  7AE             Rx   d 8 03 7F 27 7F AA AA AA AA
 90.455489 1  7A6             Tx   d 8 02 27 12 00 00 00 00 00
 90.461473 1  7AE             Rx   d 8 03 7F 27 7F AA AA AA AA
 90.575850 1  7A6             Tx   d 8 02 27 12 00 00 00 00 00
 90.591547 1  7AE             Rx   d 8 03 7F 27 7F AA AA AA AA
 90.712382 1  7A6             Tx   d 8 02 27 12 00 00 00 00 00
 90.721507 1  7AE             Rx   d 8 03 7F 27 7F AA AA AA AA
 90.835140 1  7A6             Tx   d 8 02 27 12 00 00 00 00 00
 90.841478 1  7AE             Rx   d 8 03 7F 27 7F AA AA AA AA
 90.964004 1  7A6             Tx   d 8 02 27 12 00 00 00 00 00
 90.972086 1  7AE             Rx   d 8 03 7F 27 7F AA AA AA AA
 91.087378 1  7A6             Tx   d 8 02 27 12 00 00 00 00 00
 91.091494 1  7AE             Rx   d 8 03 7F 27 7F AA AA AA AA
 91.206079 1  7A6             Tx   d 8 02 27 12 00 00 00 00 00
 91.211490 1  7AE             Rx   d 8 03 7F 27 7F AA AA AA AA
 91.330221 1  7A6             Tx   d 8 02 27 12 00 00 00 00 00
 91.331572 1  7AE             Rx   d 8 03 7F 27 7F AA AA AA AA
 91.445340 1  7A6             Tx   d 8 10 0B 2E F1 97 4D 4B 42
 91.451504 1  7AE             Rx   d 8 30 08 0A AA AA AA AA AA
 91.466508 1  7A6             Tx   d 8 21 44 4D 4B 42 44 00 00
 91.471546 1  7AE             Rx   d 8 03 7F 2E 22 AA AA AA AA
 91.540810 1  7A6             Tx   d 8 10 08 2E F1 95 30 31 2E
 91.541701 1  7AE             Rx   d 8 30 08 0A AA AA AA AA AA
 91.560026 1  7A6             Tx   d 8 21 30 30 00 00 00 00 00
 91.561596 1  7AE             Rx   d 8 03 7F 2E 22 AA AA AA AA
 91.633469 1  7A6             Tx   d 8 10 16 2E F1 C1 A6 32 F7
 91.635542 1  7AE             Rx   d 8 30 08 0A AA AA AA AA AA
 91.652088 1  7A6             Tx   d 8 21 CD 4D F6 CD A6 04 EB
 91.662326 1  7A6             Tx   d 8 22 7E 3A 2E 85 0A 39 A6
 91.673053 1  7A6             Tx   d 8 23 32 F7 00 00 00 00 00
 91.681547 1  7AE             Rx   d 8 03 7F 2E 22 AA AA AA AA
 91.744064 1  7A6             Tx   d 8 10 0B 2E F1 93 30 31 2E
 91.745560 1  7AE             Rx   d 8 30 08 0A AA AA AA AA AA
 91.760466 1  7A6             Tx   d 8 21 30 30 2E 30 30 00 00
 91.761585 1  7AE             Rx   d 8 03 7F 2E 22 AA AA AA AA
 91.824438 1  7A6             Tx   d 8 10 0D 2E F1 91 30 31 2E
 91.825525 1  7AE             Rx   d 8 30 08 0A AA AA AA AA AA
 91.840414 1  7A6             Tx   d 8 21 30 30 30 31 2E 30 30
 91.841591 1  7AE             Rx   d 8 03 7F 2E 22 AA AA AA AA
 91.912594 1  7A6             Tx   d 8 10 11 2E F1 87 39 36 35
 91.915662 1  7AE             Rx   d 8 30 08 0A AA AA AA AA AA
 91.933589 1  7A6             Tx   d 8 21 34 30 44 59 30 30 30
 91.952938 1  7A6             Tx   d 8 22 36 35 34 30 00 00 00
 91.961582 1  7AE             Rx   d 8 03 7F 2E 22 AA AA AA AA
 92.024525 1  7A6             Tx   d 8 10 14 2E F1 8C 61 38 31
 92.025589 1  7AE             Rx   d 8 30 08 0A AA AA AA AA AA
 92.041315 1  7A6             Tx   d 8 21 31 32 33 34 35 37 39
 92.051621 1  7A6             Tx   d 8 22 31 32 33 34 35 37 39
 92.061546 1  7AE             Rx   d 8 03 7F 2E 22 AA AA AA AA
 92.123552 1  7A6             Tx   d 8 10 0A 2E F1 8B 00 00 00
 92.125550 1  7AE             Rx   d 8 30 08 0A AA AA AA AA AA
 92.140352 1  7A6             Tx   d 8 21 00 00 00 00 00 00 00
 92.141613 1  7AE             Rx   d 8 03 7F 2E 22 AA AA AA AA
 92.210217 1  7A6             Tx   d 8 10 0B 2E F1 A1 61 38 31
 92.211751 1  7AE             Rx   d 8 30 08 0A AA AA AA AA AA
 92.236709 1  7A6             Tx   d 8 21 32 61 38 31 32 00 00
 92.241598 1  7AE             Rx   d 8 03 7F 2E 22 AA AA AA AA
 92.314907 1  7A6             Tx   d 8 07 2E F1 97 4D 4B 42 44
 92.321640 1  7AE             Rx   d 8 03 7F 2E 22 AA AA AA AA
 92.386967 1  7A6             Tx   d 8 05 2E F1 95 30 31 00 00
 92.391538 1  7AE             Rx   d 8 03 7F 2E 22 AA AA AA AA
 92.454384 1  7A6             Tx   d 8 10 13 2E F1 C1 A6 32 F7
 92.455554 1  7AE             Rx   d 8 30 08 0A AA AA AA AA AA
 92.470349 1  7A6             Tx   d 8 21 CD 4D F6 CD A6 04 EB
 92.480958 1  7A6             Tx   d 8 22 7E 3A 2E 85 0A 39 00
 92.491596 1  7AE             Rx   d 8 03 7F 2E 22 AA AA AA AA
 92.554161 1  7A6             Tx   d 8 05 2E F1 93 30 31 00 00
 92.561571 1  7AE             Rx   d 8 03 7F 2E 22 AA AA AA AA
 92.624110 1  7A6             Tx   d 8 06 2E F1 91 30 31 2E 00
 92.631567 1  7AE             Rx   d 8 03 7F 2E 22 AA AA AA AA
 92.700500 1  7A6             Tx   d 8 10 09 2E F1 87 39 36 35
 92.701689 1  7AE             Rx   d 8 30 08 0A AA AA AA AA AA
 92.719762 1  7A6             Tx   d 8 21 34 30 44 00 00 00 00
 92.721627 1  7AE             Rx   d 8 03 7F 2E 22 AA AA AA AA
 92.788549 1  7A6             Tx   d 8 10 0A 2E F1 8C 61 38 31
 92.791579 1  7AE             Rx   d 8 30 08 0A AA AA AA AA AA
 92.806742 1  7A6             Tx   d 8 21 31 32 33 34 00 00 00
 92.811599 1  7AE             Rx   d 8 03 7F 2E 22 AA AA AA AA
 92.874037 1  7A6             Tx   d 8 10 0A 2E F1 8B 00 00 00
 92.875590 1  7AE             Rx   d 8 30 08 0A AA AA AA AA AA
 92.890515 1  7A6             Tx   d 8 21 00 00 00 00 00 00 00
 92.891634 1  7AE             Rx   d 8 03 7F 2E 22 AA AA AA AA
 92.954070 1  7A6             Tx   d 8 10 0B 2E F1 A1 61 38 31
 92.955585 1  7AE             Rx   d 8 30 08 0A AA AA AA AA AA
 92.970424 1  7A6             Tx   d 8 21 32 61 38 31 32 00 00
 92.971639 1  7AE             Rx   d 8 03 7F 2E 22 AA AA AA AA
 93.034075 1  7A6             Tx   d 8 10 0B 2E F1 97 4D 4B 42
 93.035594 1  7AE             Rx   d 8 30 08 0A AA AA AA AA AA
 93.050472 1  7A6             Tx   d 8 21 44 4D 4B 42 44 00 00
 93.051665 1  7AE             Rx   d 8 03 7F 2E 22 AA AA AA AA
 93.114033 1  7A6             Tx   d 8 10 08 2E F1 95 30 31 2E
 93.115617 1  7AE             Rx   d 8 30 08 0A AA AA AA AA AA
 93.130593 1  7A6             Tx   d 8 21 30 30 00 00 00 00 00
 93.141654 1  7AE             Rx   d 8 03 7F 2E 22 AA AA AA AA
 93.208127 1  7A6             Tx   d 8 10 23 2E F1 C1 61 38 31
 93.211674 1  7AE             Rx   d 8 30 08 0A AA AA AA AA AA
 93.230548 1  7A6             Tx   d 8 21 31 32 33 34 35 37 39
 93.241467 1  7A6             Tx   d 8 22 31 32 33 34 35 37 39
 93.260251 1  7A6             Tx   d 8 23 61 38 31 31 32 33 34
 93.266623 1  7A6             Tx   d 8 24 35 37 39 31 32 33 34
 93.274400 1  7A6             Tx   d 8 25 35 00 00 00 00 00 00
 93.281667 1  7AE             Rx   d 8 03 7F 2E 22 AA AA AA AA
 93.344536 1  7A6             Tx   d 8 10 08 2E F1 93 30 31 2E
 93.345609 1  7AE             Rx   d 8 30 08 0A AA AA AA AA AA
 93.360493 1  7A6             Tx   d 8 21 30 30 00 00 00 00 00
 93.361658 1  7AE             Rx   d 8 03 7F 2E 22 AA AA AA AA
 93.424033 1  7A6             Tx   d 8 10 08 2E F1 91 30 31 2E
 93.425619 1  7AE             Rx   d 8 30 08 0A AA AA AA AA AA
 93.440356 1  7A6             Tx   d 8 21 30 30 00 00 00 00 00
 93.441679 1  7AE             Rx   d 8 03 7F 2E 22 AA AA AA AA
 93.503724 1  7A6             Tx   d 8 10 0D 2E F1 87 39 36 35
 93.505628 1  7AE             Rx   d 8 30 08 0A AA AA AA AA AA
 93.520390 1  7A6             Tx   d 8 21 34 30 44 59 30 30 30
 93.521683 1  7AE             Rx   d 8 03 7F 2E 22 AA AA AA AA
 93.584113 1  7A6             Tx   d 8 10 0D 2E F1 8C 61 38 31
 93.591599 1  7AE             Rx   d 8 30 08 0A AA AA AA AA AA
 93.606482 1  7A6             Tx   d 8 21 31 32 33 34 35 37 39
 93.611645 1  7AE             Rx   d 8 03 7F 2E 22 AA AA AA AA
 93.692122 1  7A6             Tx   d 8 10 23 2E F1 8C 61 38 31
 93.696261 1  7AE             Rx   d 8 30 08 0A AA AA AA AA AA
 93.715486 1  7A6             Tx   d 8 21 31 32 33 34 35 37 39
 93.725325 1  7A6             Tx   d 8 22 31 32 33 34 35 37 39
 93.736974 1  7A6             Tx   d 8 23 61 38 31 31 32 33 34
 93.747617 1  7A6             Tx   d 8 24 35 37 39 31 32 33 34
 93.767028 1  7A6             Tx   d 8 25 35 00 00 00 00 00 00
 93.771680 1  7AE             Rx   d 8 03 7F 2E 22 AA AA AA AA
 93.847689 1  7A6             Tx   d 8 07 2E F1 8B 00 00 00 00
 93.851761 1  7AE             Rx   d 8 03 7F 2E 22 AA AA AA AA
 93.927145 1  7A6             Tx   d 8 07 2E F1 A1 61 38 31 32
 93.931684 1  7AE             Rx   d 8 03 7F 2E 22 AA AA AA AA
 94.134088 1  7A6             Tx   d 8 02 10 01 00 00 00 00 00
 94.141685 1  7AE             Rx   d 8 06 50 01 00 32 01 F4 AA
 94.397683 1  7A6             Tx   d 8 02 10 01 00 00 00 00 00
 94.401783 1  7AE             Rx   d 8 06 50 01 00 32 01 F4 AA
 94.524969 1  7A6             Tx   d 8 02 27 11 00 00 00 00 00
 94.531723 1  7AE             Rx   d 8 03 7F 27 7F AA AA AA AA
 94.781141 1  7A6             Tx   d 8 02 10 03 00 00 00 00 00
 94.791924 1  7AE             Rx   d 8 06 50 03 00 32 01 F4 AA
 95.003163 1  7A6             Tx   d 8 02 10 01 00 00 00 00 00
 95.011738 1  7AE             Rx   d 8 06 50 01 00 32 01 F4 AA
 95.075731 1  7A6             Tx   d 8 01 22 00 00 00 00 00 00
 95.081681 1  7AE             Rx   d 8 03 7F 22 13 AA AA AA AA
 95.550973 1  7A6             Tx   d 8 03 22 F1 FF 00 00 00 00
 95.561820 1  7AE             Rx   d 8 03 7F 22 12 AA AA AA AA
 95.813287 1  7A6             Tx   d 8 02 10 03 00 00 00 00 00
 95.821785 1  7AE             Rx   d 8 06 50 03 00 32 01 F4 AA
 96.022676 1  7A6             Tx   d 8 02 10 03 00 00 00 00 00
 96.031774 1  7AE             Rx   d 8 06 50 03 00 32 01 F4 AA
 96.227782 1  7A6             Tx   d 8 02 10 03 00 00 00 00 00
 96.231774 1  7AE             Rx   d 8 06 50 03 00 32 01 F4 AA
 96.444163 1  7A6             Tx   d 8 02 10 03 00 00 00 00 00
 96.451842 1  7AE             Rx   d 8 06 50 03 00 32 01 F4 AA
 96.651433 1  7A6             Tx   d 8 02 10 03 00 00 00 00 00
 96.661986 1  7AE             Rx   d 8 06 50 03 00 32 01 F4 AA
 96.879238 1  7A6             Tx   d 8 02 10 03 00 00 00 00 00
 96.881829 1  7AE             Rx   d 8 06 50 03 00 32 01 F4 AA
 97.082965 1  7A6             Tx   d 8 02 10 03 00 00 00 00 00
 97.091932 1  7AE             Rx   d 8 06 50 03 00 32 01 F4 AA
 97.289973 1  7A6             Tx   d 8 02 10 03 00 00 00 00 00
 97.291893 1  7AE             Rx   d 8 06 50 03 00 32 01 F4 AA
 97.494475 1  7A6             Tx   d 8 02 10 03 00 00 00 00 00
 97.501921 1  7AE             Rx   d 8 06 50 03 00 32 01 F4 AA
 97.708507 1  7A6             Tx   d 8 02 10 03 00 00 00 00 00
 97.711904 1  7AE             Rx   d 8 06 50 03 00 32 01 F4 AA
 97.908065 1  7A6             Tx   d 8 02 10 03 00 00 00 00 00
 97.911852 1  7AE             Rx   d 8 06 50 03 00 32 01 F4 AA
 98.107580 1  7A6             Tx   d 8 02 10 03 00 00 00 00 00
 98.111849 1  7AE             Rx   d 8 06 50 03 00 32 01 F4 AA
 98.307651 1  7A6             Tx   d 8 02 10 03 00 00 00 00 00
 98.311888 1  7AE             Rx   d 8 06 50 03 00 32 01 F4 AA
 98.513007 1  7A6             Tx   d 8 02 10 03 00 00 00 00 00
 98.521884 1  7AE             Rx   d 8 06 50 03 00 32 01 F4 AA
 98.717498 1  7A6             Tx   d 8 02 10 03 00 00 00 00 00
 98.721886 1  7AE             Rx   d 8 06 50 03 00 32 01 F4 AA
 98.918245 1  7A6             Tx   d 8 02 10 03 00 00 00 00 00
 98.921894 1  7AE             Rx   d 8 06 50 03 00 32 01 F4 AA
 98.986208 1  7A6             Tx   d 8 03 22 F1 97 00 00 00 00
 98.991970 1  7AE             Rx   d 8 07 62 F1 97 4D 46 53 57
 99.105989 1  7A6             Tx   d 8 03 22 F1 DD 00 00 00 00
 99.111963 1  7AE             Rx   d 8 10 10 62 F1 DD 31 30 30
 99.116671 1  7A6             Tx   d 8 30 08 0A 00 00 00 00 00
 99.131958 1  7AE             Rx   d 8 21 30 30 00 00 00 00 00
 99.151950 1  7AE             Rx   d 8 22 00 00 00 AA AA AA AA
 99.265824 1  7A6             Tx   d 8 03 22 F1 B1 00 00 00 00
 99.271940 1  7AE             Rx   d 8 07 62 F1 B1 31 2E 30 30
 99.385873 1  7A6             Tx   d 8 03 22 F1 B0 00 00 00 00
 99.391912 1  7AE             Rx   d 8 04 62 F1 B0 01 AA AA AA
 99.506060 1  7A6             Tx   d 8 03 22 F1 A1 00 00 00 00
 99.515905 1  7AE             Rx   d 8 07 62 F1 A1 53 31 31 30
 99.629845 1  7A6             Tx   d 8 03 22 F1 A0 00 00 00 00
 99.631969 1  7AE             Rx   d 8 07 62 F1 A0 31 2E 30 30
 99.745667 1  7A6             Tx   d 8 03 22 F1 95 00 00 00 00
 99.751987 1  7AE             Rx   d 8 07 62 F1 95 31 2E 30 30
 99.865309 1  7A6             Tx   d 8 03 22 F1 C1 00 00 00 00
 99.871954 1  7AE             Rx   d 8 03 7F 22 22 AA AA AA AA
 99.988913 1  7A6             Tx   d 8 03 22 F1 93 00 00 00 00
 99.991997 1  7AE             Rx   d 8 07 62 F1 93 31 2E 30 30
 100.110920 1  7A6             Tx   d 8 03 22 F1 91 00 00 00 00
 100.112074 1  7AE             Rx   d 8 07 62 F1 91 31 2E 30 30
 100.230919 1  7A6             Tx   d 8 03 22 F1 8C 00 00 00 00
 100.232086 1  7AE             Rx   d 8 10 0B 62 F1 8C 30 30 30
 100.237700 1  7A6             Tx   d 8 30 08 0A 00 00 00 00 00
 100.252081 1  7AE             Rx   d 8 21 30 30 30 30 31 AA AA
 100.371539 1  7A6             Tx   d 8 03 22 F1 8B 00 00 00 00
 100.391999 1  7AE             Rx   d 8 07 62 F1 8B 20 25 12 19
 100.510956 1  7A6             Tx   d 8 03 22 F1 87 00 00 00 00
 100.516008 1  7AE             Rx   d 8 10 0D 62 F1 87 39 33 34
 100.522560 1  7A6             Tx   d 8 30 08 0A 00 00 00 00 00
 100.542070 1  7AE             Rx   d 8 21 44 38 47 42 35 31 30
 100.662119 1  7A6             Tx   d 8 03 22 F1 00 00 00 00 00
 100.672239 1  7AE             Rx   d 8 06 62 F1 00 31 2E 30 AA
 100.799241 1  7A6             Tx   d 8 03 22 F1 EF 00 00 00 00
 100.802112 1  7AE             Rx   d 8 10 2B 62 F1 EF 07 A6 0B
 100.808138 1  7A6             Tx   d 8 30 08 0A 00 00 00 00 00
 100.822160 1  7AE             Rx   d 8 21 52 31 30 20 4D 51 34
 100.842138 1  7AE             Rx   d 8 22 2F 31 2F 30 0C 52 31
 100.862186 1  7AE             Rx   d 8 23 35 35 20 4D 51 34 2F
 100.882020 1  7AE             Rx   d 8 24 31 2F 30 0C 52 31 35
 100.902054 1  7AE             Rx   d 8 25 36 20 4D 51 34 2F 31
 100.922044 1  7AE             Rx   d 8 26 2F 30 AA AA AA AA AA
 101.167928 1  7A6             Tx   d 8 02 10 01 00 00 00 00 00
 101.172026 1  7AE             Rx   d 8 06 50 01 00 32 01 F4 AA
 101.367941 1  7A6             Tx   d 8 02 10 01 00 00 00 00 00
 101.372354 1  7AE             Rx   d 8 06 50 01 00 32 01 F4 AA
 101.583454 1  7A6             Tx   d 8 02 10 01 00 00 00 00 00
 101.592028 1  7AE             Rx   d 8 06 50 01 00 32 01 F4 AA
 101.788235 1  7A6             Tx   d 8 02 10 01 00 00 00 00 00
 101.792079 1  7AE             Rx   d 8 06 50 01 00 32 01 F4 AA
 101.988035 1  7A6             Tx   d 8 02 10 01 00 00 00 00 00
 101.992064 1  7AE             Rx   d 8 06 50 01 00 32 01 F4 AA
 102.186854 1  7A6             Tx   d 8 02 10 01 00 00 00 00 00
 102.192078 1  7AE             Rx   d 8 06 50 01 00 32 01 F4 AA
 102.391248 1  7A6             Tx   d 8 02 10 01 00 00 00 00 00
 102.402605 1  7AE             Rx   d 8 06 50 01 00 32 01 F4 AA
 102.618446 1  7A6             Tx   d 8 02 10 01 00 00 00 00 00
 102.622130 1  7AE             Rx   d 8 06 50 01 00 32 01 F4 AA
 102.822127 1  7A6             Tx   d 8 02 10 01 00 00 00 00 00
 102.832253 1  7AE             Rx   d 8 06 50 01 00 32 01 F4 AA
 103.029502 1  7A6             Tx   d 8 02 10 01 00 00 00 00 00
 103.032311 1  7AE             Rx   d 8 06 50 01 00 32 01 F4 AA
 103.233714 1  7A6             Tx   d 8 02 10 01 00 00 00 00 00
 103.242152 1  7AE             Rx   d 8 06 50 01 00 32 01 F4 AA
 103.443048 1  7A6             Tx   d 8 02 10 01 00 00 00 00 00
 103.452318 1  7AE             Rx   d 8 06 50 01 00 32 01 F4 AA
 103.658871 1  7A6             Tx   d 8 02 10 01 00 00 00 00 00
 103.662200 1  7AE             Rx   d 8 06 50 01 00 32 01 F4 AA
 103.861394 1  7A6             Tx   d 8 02 10 01 00 00 00 00 00
 103.872267 1  7AE             Rx   d 8 06 50 01 00 32 01 F4 AA
 104.084653 1  7A6             Tx   d 8 02 10 01 00 00 00 00 00
 104.092209 1  7AE             Rx   d 8 06 50 01 00 32 01 F4 AA
 104.295509 1  7A6             Tx   d 8 02 10 01 00 00 00 00 00
 104.302257 1  7AE             Rx   d 8 06 50 01 00 32 01 F4 AA
 104.389954 1  7A6             Tx   d 8 03 22 F1 97 00 00 00 00
 104.392267 1  7AE             Rx   d 8 07 62 F1 97 4D 46 53 57
 104.506287 1  7A6             Tx   d 8 03 22 F1 DD 00 00 00 00
 104.516147 1  7AE             Rx   d 8 10 10 62 F1 DD 31 30 30
 104.520422 1  7A6             Tx   d 8 30 08 0A 00 00 00 00 00
 104.532216 1  7AE             Rx   d 8 21 30 30 00 00 00 00 00
 104.552232 1  7AE             Rx   d 8 22 00 00 00 AA AA AA AA
 104.673917 1  7A6             Tx   d 8 03 22 F1 B1 00 00 00 00
 104.682258 1  7AE             Rx   d 8 07 62 F1 B1 31 2E 30 30
 104.796211 1  7A6             Tx   d 8 03 22 F1 B0 00 00 00 00
 104.802186 1  7AE             Rx   d 8 04 62 F1 B0 01 AA AA AA
 104.926400 1  7A6             Tx   d 8 03 22 F1 A1 00 00 00 00
 104.932270 1  7AE             Rx   d 8 07 62 F1 A1 53 31 31 30
 105.046533 1  7A6             Tx   d 8 03 22 F1 A0 00 00 00 00
 105.052243 1  7AE             Rx   d 8 07 62 F1 A0 31 2E 30 30
 105.165323 1  7A6             Tx   d 8 03 22 F1 95 00 00 00 00
 105.172203 1  7AE             Rx   d 8 07 62 F1 95 31 2E 30 30
 105.294248 1  7A6             Tx   d 8 03 22 F1 C1 00 00 00 00
 105.302423 1  7AE             Rx   d 8 03 7F 22 22 AA AA AA AA
 105.416166 1  7A6             Tx   d 8 03 22 F1 93 00 00 00 00
 105.422213 1  7AE             Rx   d 8 07 62 F1 93 31 2E 30 30
 105.534990 1  7A6             Tx   d 8 03 22 F1 91 00 00 00 00
 105.542228 1  7AE             Rx   d 8 07 62 F1 91 31 2E 30 30
 105.669446 1  7A6             Tx   d 8 03 22 F1 8C 00 00 00 00
 105.672336 1  7AE             Rx   d 8 10 0B 62 F1 8C 30 30 30
 105.682389 1  7A6             Tx   d 8 30 08 0A 00 00 00 00 00
 105.702379 1  7AE             Rx   d 8 21 30 30 30 30 31 AA AA
 105.819752 1  7A6             Tx   d 8 03 22 F1 8B 00 00 00 00
 105.822277 1  7AE             Rx   d 8 07 62 F1 8B 20 25 12 19
 105.940634 1  7A6             Tx   d 8 03 22 F1 87 00 00 00 00
 105.942316 1  7AE             Rx   d 8 10 0D 62 F1 87 39 33 34
 105.948322 1  7A6             Tx   d 8 30 08 0A 00 00 00 00 00
 105.962346 1  7AE             Rx   d 8 21 44 38 47 42 35 31 30
 106.079543 1  7A6             Tx   d 8 03 22 F1 00 00 00 00 00
 106.082275 1  7AE             Rx   d 8 06 62 F1 00 31 2E 30 AA
 106.201528 1  7A6             Tx   d 8 03 22 F1 EF 00 00 00 00
 106.212322 1  7AE             Rx   d 8 10 2B 62 F1 EF 07 A6 0B
 106.218647 1  7A6             Tx   d 8 30 08 0A 00 00 00 00 00
 106.232324 1  7AE             Rx   d 8 21 52 31 30 20 4D 51 34
 106.252352 1  7AE             Rx   d 8 22 2F 31 2F 30 0C 52 31
 106.272336 1  7AE             Rx   d 8 23 35 35 20 4D 51 34 2F
 106.292342 1  7AE             Rx   d 8 24 31 2F 30 0C 52 31 35
 106.312350 1  7AE             Rx   d 8 25 36 20 4D 51 34 2F 31
 106.332328 1  7AE             Rx   d 8 26 2F 30 AA AA AA AA AA
 106.596352 1  7A6             Tx   d 8 02 10 03 00 00 00 00 00
 106.602293 1  7AE             Rx   d 8 06 50 03 00 32 01 F4 AA
 106.797710 1  7A6             Tx   d 8 02 10 03 00 00 00 00 00
 106.802302 1  7AE             Rx   d 8 06 50 03 00 32 01 F4 AA
 106.998073 1  7A6             Tx   d 8 02 10 03 00 00 00 00 00
 107.002312 1  7AE             Rx   d 8 06 50 03 00 32 01 F4 AA
 107.064777 1  7A6             Tx   d 8 01 14 00 00 00 00 00 00
 107.072342 1  7AE             Rx   d 8 03 7F 14 13 AA AA AA AA
 107.134451 1  7A6             Tx   d 8 04 14 FF EE EE 00 00 00
 107.142335 1  7AE             Rx   d 8 03 7F 14 12 AA AA AA AA
 107.205119 1  7A6             Tx   d 8 04 14 FF FF FF 00 00 00
 107.212541 1  7AE             Rx   d 8 01 54 AA AA AA AA AA AA
 107.275111 1  7A6             Tx   d 8 03 22 F1 93 00 00 00 00
 107.282336 1  7AE             Rx   d 8 07 62 F1 93 31 2E 30 30
 107.395841 1  7A6             Tx   d 8 03 22 F1 8C 00 00 00 00
 107.402339 1  7AE             Rx   d 8 10 0B 62 F1 8C 30 30 30
 107.406766 1  7A6             Tx   d 8 30 08 0A 00 00 00 00 00
 107.422375 1  7AE             Rx   d 8 21 30 30 30 30 31 AA AA
 107.535064 1  7A6             Tx   d 8 03 22 F1 8B 00 00 00 00
 107.542369 1  7AE             Rx   d 8 07 62 F1 8B 20 25 12 19
 107.655130 1  7A6             Tx   d 8 03 22 F1 00 00 00 00 00
 107.662359 1  7AE             Rx   d 8 06 62 F1 00 31 2E 30 AA
 107.775255 1  7A6             Tx   d 8 03 22 F1 DD 00 00 00 00
 107.792330 1  7AE             Rx   d 8 10 10 62 F1 DD 31 30 30
 107.796958 1  7A6             Tx   d 8 30 08 0A 00 00 00 00 00
 107.812401 1  7AE             Rx   d 8 21 30 30 00 00 00 00 00
 107.832385 1  7AE             Rx   d 8 22 00 00 00 AA AA AA AA
End TriggerBlock
