date Tue Aug 04 15:52:21.813 2026
base hex  timestamps absolute
internal events logged
Begin Triggerblock Tue Aug 04 15:52:22.186 2026
 0.000000 Start of measurement
 0.000000 1  7A7             Tx   d 8 03 22 F1 DD 00 00 00 00
 0.009602 1  7AF             Rx   d 8 07 F1 DD 31 30 30 30 31
 1.231719 1  7A7             Tx   d 8 03 22 F1 00 00 00 00 00
 1.239662 1  7AF             Rx   d 8 06 62 F1 00 31 2E 37 00
 2.471973 1  7A7             Tx   d 8 03 22 F1 8B 00 00 00 00
 2.479512 1  7AF             Rx   d 8 07 62 F1 8B 00 00 00 00
 2.789569 1  7A7             Tx   d 8 03 22 F1 8B 00 00 00 00
 2.799557 1  7AF             Rx   d 8 07 62 F1 8B 00 00 00 00
 3.114660 1  7A7             Tx   d 8 03 22 F1 8B 00 00 00 00
 3.120258 1  7AF             Rx   d 8 07 62 F1 8B 00 00 00 00
 4.365807 1  7A7             Tx   d 8 03 22 F1 8C 00 00 00 00
 4.369110 1  7AF             Rx   d 8 10 0B 62 F1 8C 30 30 31
 4.377511 1  7A7             Tx   d 8 30 08 0A 00 00 00 00 00
 4.392960 1  7A7             Tx   d 8 30 08 0A 00 00 00 00 00
 4.429881 1  7AF             Rx   d 8 21 31 35 39 31 35 00 00
 5.682609 1  7A7             Tx   d 8 03 22 F1 93 00 00 00 00
 5.689273 1  7AF             Rx   d 8 07 62 F1 93 31 2E 30 30
 6.964024 1  7A7             Tx   d 8 02 10 01 00 00 00 00 00
 6.969332 1  7AF             Rx   d 8 02 50 01 00 00 00 00 00
 7.116119 1  7A7             Tx   d 8 03 22 F1 EF 00 00 00 00
 7.119906 1  7AF             Rx   d 8 10 2B 62 F1 EF 07 A7 0B
 7.124977 1  7A7             Tx   d 8 30 08 0A 00 00 00 00 00
 7.127552 1  7A7             Tx   d 8 30 08 0A 00 00 00 00 00
 7.168956 1  7AF             Rx   d 8 21 52 31 30 20 4D 51 34
 7.219144 1  7AF             Rx   d 8 22 2F 31 2F 31 0C 52 31
 7.268967 1  7AF             Rx   d 8 23 35 35 20 4D 51 34 2F
 7.319841 1  7AF             Rx   d 8 24 31 2F 31 0C 52 31 35
 7.368923 1  7AF             Rx   d 8 25 36 20 4D 51 34 2F 31
 7.419649 1  7AF             Rx   d 8 26 2F 31 AA AA AA AA AA
 7.647980 1  7A7             Tx   d 8 03 22 F1 00 00 00 00 00
 7.659235 1  7AF             Rx   d 8 06 62 F1 00 31 2E 37 00
 7.866650 1  7A7             Tx   d 8 03 22 F1 87 00 00 00 00
 7.879083 1  7AF             Rx   d 8 10 0D 62 F1 87 39 36 37
 7.885359 1  7A7             Tx   d 8 30 08 0A 00 00 00 00 00
 7.891195 1  7A7             Tx   d 8 30 08 0A 00 00 00 00 00
 7.929490 1  7AF             Rx   d 8 21 30 30 47 42 31 30 30
 8.126206 1  7A7             Tx   d 8 03 22 F1 8B 00 00 00 00
 8.129273 1  7AF             Rx   d 8 07 62 F1 8B 00 00 00 00
 8.330601 1  7A7             Tx   d 8 03 22 F1 8C 00 00 00 00
 8.339092 1  7AF             Rx   d 8 10 0B 62 F1 8C 30 30 31
 8.349300 1  7A7             Tx   d 8 30 08 0A 00 00 00 00 00
 8.349481 1  7A7             Tx   d 8 30 08 0A 00 00 00 00 00
 8.399610 1  7AF             Rx   d 8 21 31 35 39 31 35 00 00
 8.611145 1  7A7             Tx   d 8 03 22 F1 91 00 00 00 00
 8.619233 1  7AF             Rx   d 8 07 62 F1 91 31 2E 30 30
 8.822956 1  7A7             Tx   d 8 03 22 F1 93 00 00 00 00
 8.829210 1  7AF             Rx   d 8 07 62 F1 93 31 2E 30 30
 9.032223 1  7A7             Tx   d 8 03 22 F1 C1 00 00 00 00
 9.039233 1  7AF             Rx   d 8 03 7F 22 22 00 00 00 00
 9.239077 1  7A7             Tx   d 8 03 22 F1 95 00 00 00 00
 9.248930 1  7AF             Rx   d 8 07 62 F1 95 31 2E 30 30
 9.449274 1  7A7             Tx   d 8 03 22 F1 A0 00 00 00 00
 9.459156 1  7AF             Rx   d 8 07 62 F1 A0 31 2E 30 30
 9.656563 1  7A7             Tx   d 8 03 22 F1 A1 00 00 00 00
 9.668963 1  7AF             Rx   d 8 07 62 F1 A1 54 46 45 59
 9.836780 1  7A7             Tx   d 8 03 22 F1 B0 00 00 00 00
 9.849070 1  7AF             Rx   d 8 04 62 F1 B0 01 00 00 00
 10.041396 1  7A7             Tx   d 8 03 22 F1 B1 00 00 00 00
 10.048860 1  7AF             Rx   d 8 07 62 F1 B1 31 2E 30 30
 10.242932 1  7A7             Tx   d 8 03 22 F1 DD 00 00 00 00
 10.248893 1  7AF             Rx   d 8 07 F1 DD 31 30 30 30 31
 10.449322 1  7A7             Tx   d 8 03 22 ED 90 00 00 00 00
 10.459006 1  7AF             Rx   d 8 10 10 62 ED 90 E2 00 00
 10.470200 1  7A7             Tx   d 8 30 08 0A 00 00 00 00 00
 10.482702 1  7A7             Tx   d 8 30 08 0A 00 00 00 00 00
 10.519969 1  7AF             Rx   d 8 21 00 00 00 00 04 00 00
 10.569677 1  7AF             Rx   d 8 22 00 00 00 00 00 00 00
 10.763298 1  7A7             Tx   d 8 03 22 B6 02 00 00 00 00
 10.768818 1  7AF             Rx   d 8 10 08 62 B6 02 80 00 00
 10.776458 1  7A7             Tx   d 8 30 08 0A 00 00 00 00 00
 10.784517 1  7A7             Tx   d 8 30 08 0A 00 00 00 00 00
 10.829848 1  7AF             Rx   d 8 21 00 9A 00 00 00 00 00
 11.030332 1  7A7             Tx   d 8 03 22 B6 03 00 00 00 00
 11.038846 1  7AF             Rx   d 8 10 09 62 B6 03 F2 A0 00
 11.047905 1  7A7             Tx   d 8 30 08 0A 00 00 00 00 00
 11.053282 1  7A7             Tx   d 8 30 08 0A 00 00 00 00 00
 11.099413 1  7AF             Rx   d 8 21 00 00 00 00 00 00 00
 11.293697 1  7A7             Tx   d 8 03 22 B6 04 00 00 00 00
 11.298885 1  7AF             Rx   d 8 10 0A 62 B6 04 E5 FC 01
 11.304075 1  7A7             Tx   d 8 30 08 0A 00 00 00 00 00
 11.307683 1  7A7             Tx   d 8 30 08 0A 00 00 00 00 00
 11.349305 1  7AF             Rx   d 8 21 01 00 20 00 00 00 00
 11.546176 1  7A7             Tx   d 8 03 22 B6 05 00 00 00 00
 11.558872 1  7AF             Rx   d 8 10 09 62 B6 05 FF FF 00
 11.571186 1  7A7             Tx   d 8 30 08 0A 00 00 00 00 00
 11.575275 1  7A7             Tx   d 8 30 08 0A 00 00 00 00 00
 11.619369 1  7AF             Rx   d 8 21 00 00 00 00 00 00 00
 11.823213 1  7A7             Tx   d 8 03 22 F1 7D 00 00 00 00
 11.828873 1  7AF             Rx   d 8 03 7F 22 12 00 00 00 00
 12.025094 1  7A7             Tx   d 8 03 22 F1 7F 00 00 00 00
 12.028926 1  7AF             Rx   d 8 03 7F 22 12 00 00 00 00
 12.220202 1  7A7             Tx   d 8 03 22 F1 97 00 00 00 00
 12.228900 1  7AF             Rx   d 8 07 62 F1 97 53 57 52 43
 12.426921 1  7A7             Tx   d 8 03 22 F1 01 00 00 00 00
 12.439001 1  7AF             Rx   d 8 03 7F 22 12 00 00 00 00
 12.637773 1  7A7             Tx   d 8 04 22 F1 00 32 00 00 00
 12.648728 1  7AF             Rx   d 8 03 7F 22 13 00 00 00 00
 12.851366 1  7A7             Tx   d 8 03 22 F1 88 00 00 00 00
 12.858973 1  7AF             Rx   d 8 03 7F 22 12 00 00 00 00
 13.055472 1  7A7             Tx   d 8 04 22 F1 87 21 00 00 00
 13.058920 1  7AF             Rx   d 8 03 7F 22 13 00 00 00 00
 13.253148 1  7A7             Tx   d 8 03 22 F1 85 00 00 00 00
 13.259033 1  7AF             Rx   d 8 03 7F 22 12 00 00 00 00
 13.470039 1  7A7             Tx   d 8 04 22 F1 8B 12 00 00 00
 13.478895 1  7AF             Rx   d 8 03 7F 22 13 00 00 00 00
 13.672937 1  7A7             Tx   d 8 03 22 F1 89 00 00 00 00
 13.678863 1  7AF             Rx   d 8 03 7F 22 12 00 00 00 00
 13.874865 1  7A7             Tx   d 8 04 22 F1 8C 12 00 00 00
 13.878905 1  7AF             Rx   d 8 03 7F 22 13 00 00 00 00
 14.073591 1  7A7             Tx   d 8 03 22 F1 92 00 00 00 00
 14.078908 1  7AF             Rx   d 8 03 7F 22 12 00 00 00 00
 14.282614 1  7A7             Tx   d 8 04 22 F1 91 12 00 00 00
 14.288605 1  7AF             Rx   d 8 03 7F 22 13 00 00 00 00
 14.486770 1  7A7             Tx   d 8 03 22 F1 94 00 00 00 00
 14.499583 1  7AF             Rx   d 8 03 7F 22 12 00 00 00 00
 14.699644 1  7A7             Tx   d 8 04 22 F1 93 12 00 00 00
 14.708666 1  7AF             Rx   d 8 03 7F 22 13 00 00 00 00
 14.905002 1  7A7             Tx   d 8 03 22 F1 88 00 00 00 00
 14.908634 1  7AF             Rx   d 8 03 7F 22 12 00 00 00 00
 15.109452 1  7A7             Tx   d 8 04 22 F1 95 12 00 00 00
 15.119539 1  7AF             Rx   d 8 03 7F 22 13 00 00 00 00
 15.309329 1  7A7             Tx   d 8 03 22 F1 A5 00 00 00 00
 15.319547 1  7AF             Rx   d 8 03 7F 22 12 00 00 00 00
 15.521308 1  7A7             Tx   d 8 04 22 F1 A0 12 00 00 00
 15.528574 1  7AF             Rx   d 8 03 7F 22 13 00 00 00 00
 15.721460 1  7A7             Tx   d 8 03 22 F1 A7 00 00 00 00
 15.728735 1  7AF             Rx   d 8 03 7F 22 12 00 00 00 00
 15.928918 1  7A7             Tx   d 8 04 22 F1 A1 12 00 00 00
 15.938833 1  7AF             Rx   d 8 03 7F 22 13 00 00 00 00
 16.128481 1  7A7             Tx   d 8 03 22 F1 B5 00 00 00 00
 16.138831 1  7AF             Rx   d 8 03 7F 22 12 00 00 00 00
 16.340423 1  7A7             Tx   d 8 04 22 F1 B0 12 00 00 00
 16.348492 1  7AF             Rx   d 8 03 7F 22 13 00 00 00 00
 16.542538 1  7A7             Tx   d 8 03 22 F1 98 00 00 00 00
 16.548587 1  7AF             Rx   d 8 03 7F 22 12 00 00 00 00
 16.735994 1  7A7             Tx   d 8 04 22 F1 97 12 00 00 00
 16.748645 1  7AF             Rx   d 8 03 7F 22 13 00 00 00 00
 16.944914 1  7A7             Tx   d 8 03 22 F1 C2 00 00 00 00
 16.948401 1  7AF             Rx   d 8 03 7F 22 12 00 00 00 00
 17.140188 1  7A7             Tx   d 8 04 22 F1 C1 12 00 00 00
 17.148633 1  7AF             Rx   d 8 03 7F 22 13 00 00 00 00
 17.339555 1  7A7             Tx   d 8 03 22 F1 98 00 00 00 00
 17.348528 1  7AF             Rx   d 8 03 7F 22 12 00 00 00 00
 17.549368 1  7A7             Tx   d 8 04 22 F1 97 12 00 00 00
 17.559121 1  7AF             Rx   d 8 03 7F 22 13 00 00 00 00
 17.748836 1  7A7             Tx   d 8 03 22 F1 B2 00 00 00 00
 17.758621 1  7AF             Rx   d 8 03 7F 22 12 00 00 00 00
 17.954741 1  7A7             Tx   d 8 04 22 F1 B1 12 00 00 00
 17.958637 1  7AF             Rx   d 8 03 7F 22 13 00 00 00 00
 18.156507 1  7A7             Tx   d 8 03 22 F1 EE 00 00 00 00
 18.168461 1  7AF             Rx   d 8 03 7F 22 12 00 00 00 00
 18.374051 1  7A7             Tx   d 8 04 22 F1 EF 12 00 00 00
 18.378655 1  7AF             Rx   d 8 03 7F 22 13 00 00 00 00
 18.582531 1  7A7             Tx   d 8 03 22 ED 91 00 00 00 00
 18.588627 1  7AF             Rx   d 8 03 7F 22 12 00 00 00 00
 18.759988 1  7A7             Tx   d 8 04 22 ED 90 12 00 00 00
 18.768510 1  7AF             Rx   d 8 03 7F 22 13 00 00 00 00
 18.975047 1  7A7             Tx   d 8 03 22 F1 7E 00 00 00 00
 18.978608 1  7AF             Rx   d 8 03 7F 22 12 00 00 00 00
 19.169062 1  7A7             Tx   d 8 04 22 F1 7D 12 00 00 00
 19.178555 1  7AF             Rx   d 8 03 7F 22 13 00 00 00 00
 19.368139 1  7A7             Tx   d 8 03 22 F1 DE 00 00 00 00
 19.378595 1  7AF             Rx   d 8 03 7F 22 12 00 00 00 00
 19.570930 1  7A7             Tx   d 8 04 22 F1 DD 12 00 00 00
 19.578526 1  7AF             Rx   d 8 03 7F 22 13 00 00 00 00
 19.779552 1  7A7             Tx   d 8 03 22 B6 07 00 00 00 00
 19.788587 1  7AF             Rx   d 8 03 7F 22 12 00 00 00 00
 19.992951 1  7A7             Tx   d 8 04 22 B6 02 12 00 00 00
 19.998525 1  7AF             Rx   d 8 03 7F 22 13 00 00 00 00
 20.202453 1  7A7             Tx   d 8 03 22 B6 06 00 00 00 00
 20.208376 1  7AF             Rx   d 8 03 7F 22 12 00 00 00 00
 20.409149 1  7A7             Tx   d 8 04 22 B6 03 12 00 00 00
 20.418485 1  7AF             Rx   d 8 03 7F 22 13 00 00 00 00
 20.612095 1  7A7             Tx   d 8 03 22 B6 07 00 00 00 00
 20.618505 1  7AF             Rx   d 8 03 7F 22 12 00 00 00 00
 20.815786 1  7A7             Tx   d 8 04 22 B6 04 12 00 00 00
 20.828310 1  7AF             Rx   d 8 03 7F 22 13 00 00 00 00
 21.032485 1  7A7             Tx   d 8 03 22 B6 08 00 00 00 00
 21.038460 1  7AF             Rx   d 8 03 7F 22 12 00 00 00 00
 21.232480 1  7A7             Tx   d 8 04 22 B6 05 12 00 00 00
 21.238393 1  7AF             Rx   d 8 03 7F 22 13 00 00 00 00
 21.486294 1  7A7             Tx   d 8 02 10 03 00 00 00 00 00
 21.498436 1  7AF             Rx   d 8 06 50 03 00 32 01 F4 00
 21.644780 1  7A7             Tx   d 8 03 22 F1 EF 00 00 00 00
 21.648032 1  7AF             Rx   d 8 10 2B 62 F1 EF 07 A7 0B
 21.652775 1  7A7             Tx   d 8 30 08 0A 00 00 00 00 00
 21.655236 1  7A7             Tx   d 8 30 08 0A 00 00 00 00 00
 21.698297 1  7AF             Rx   d 8 21 52 31 30 20 4D 51 34
 21.748057 1  7AF             Rx   d 8 22 2F 31 2F 31 0C 52 31
 21.798233 1  7AF             Rx   d 8 23 35 35 20 4D 51 34 2F
 21.848055 1  7AF             Rx   d 8 24 31 2F 31 0C 52 31 35
 21.898281 1  7AF             Rx   d 8 25 36 20 4D 51 34 2F 31
 21.949015 1  7AF             Rx   d 8 26 2F 31 AA AA AA AA AA
 22.135435 1  7A7             Tx   d 8 03 22 F1 00 00 00 00 00
 22.148122 1  7AF             Rx   d 8 06 62 F1 00 31 2E 37 00
 22.355878 1  7A7             Tx   d 8 03 22 F1 87 00 00 00 00
 22.368121 1  7AF             Rx   d 8 10 0D 62 F1 87 39 36 37
 22.377102 1  7A7             Tx   d 8 30 08 0A 00 00 00 00 00
 22.386013 1  7A7             Tx   d 8 30 08 0A 00 00 00 00 00
 22.428941 1  7AF             Rx   d 8 21 30 30 47 42 31 30 30
 22.623894 1  7A7             Tx   d 8 03 22 F1 8B 00 00 00 00
 22.628131 1  7AF             Rx   d 8 07 62 F1 8B 00 00 00 00
 22.828999 1  7A7             Tx   d 8 03 22 F1 8C 00 00 00 00
 22.838186 1  7AF             Rx   d 8 10 0B 62 F1 8C 30 30 31
 22.849093 1  7A7             Tx   d 8 30 08 0A 00 00 00 00 00
 22.871521 1  7A7             Tx   d 8 30 08 0A 00 00 00 00 00
 22.898762 1  7AF             Rx   d 8 21 31 35 39 31 35 00 00
 23.100778 1  7A7             Tx   d 8 03 22 F1 91 00 00 00 00
 23.108063 1  7AF             Rx   d 8 07 62 F1 91 31 2E 30 30
 23.314560 1  7A7             Tx   d 8 03 22 F1 93 00 00 00 00
 23.319039 1  7AF             Rx   d 8 07 62 F1 93 31 2E 30 30
 23.515534 1  7A7             Tx   d 8 03 22 F1 C1 00 00 00 00
 23.528254 1  7AF             Rx   d 8 03 7F 22 22 00 00 00 00
 23.733773 1  7A7             Tx   d 8 03 22 F1 95 00 00 00 00
 23.738275 1  7AF             Rx   d 8 07 62 F1 95 31 2E 30 30
 23.949306 1  7A7             Tx   d 8 03 22 F1 A0 00 00 00 00
 23.958278 1  7AF             Rx   d 8 07 62 F1 A0 31 2E 30 30
 24.158180 1  7A7             Tx   d 8 03 22 F1 A1 00 00 00 00
 24.167978 1  7AF             Rx   d 8 07 62 F1 A1 54 46 45 59
 24.372134 1  7A7             Tx   d 8 03 22 F1 B0 00 00 00 00
 24.378240 1  7AF             Rx   d 8 04 62 F1 B0 01 00 00 00
 24.571992 1  7A7             Tx   d 8 03 22 F1 B1 00 00 00 00
 24.578238 1  7AF             Rx   d 8 07 62 F1 B1 31 2E 30 30
 24.774884 1  7A7             Tx   d 8 03 22 F1 97 00 00 00 00
 24.778225 1  7AF             Rx   d 8 07 62 F1 97 53 57 52 43
 24.979597 1  7A7             Tx   d 8 03 22 F1 DD 00 00 00 00
 24.988113 1  7AF             Rx   d 8 07 F1 DD 31 30 30 30 31
 25.184379 1  7A7             Tx   d 8 03 22 ED 90 00 00 00 00
 25.187980 1  7AF             Rx   d 8 10 10 62 ED 90 E2 00 00
 25.197692 1  7A7             Tx   d 8 30 08 0A 00 00 00 00 00
 25.200222 1  7A7             Tx   d 8 30 08 0A 00 00 00 00 00
 25.247849 1  7AF             Rx   d 8 21 00 00 00 00 04 00 00
 25.298584 1  7AF             Rx   d 8 22 00 00 00 00 00 00 00
 25.510306 1  7A7             Tx   d 8 03 22 B6 02 00 00 00 00
 25.518834 1  7AF             Rx   d 8 10 08 62 B6 02 80 00 00
 25.536011 1  7A7             Tx   d 8 30 08 0A 00 00 00 00 00
 25.541523 1  7A7             Tx   d 8 30 08 0A 00 00 00 00 00
 25.588425 1  7AF             Rx   d 8 21 00 9A 00 00 00 00 00
 25.772779 1  7A7             Tx   d 8 03 22 B6 03 00 00 00 00
 25.778017 1  7AF             Rx   d 8 10 09 62 B6 03 F2 A0 00
 25.786584 1  7A7             Tx   d 8 30 08 0A 00 00 00 00 00
 25.795689 1  7A7             Tx   d 8 30 08 0A 00 00 00 00 00
 25.839160 1  7AF             Rx   d 8 21 00 00 00 00 00 00 00
 26.037233 1  7A7             Tx   d 8 03 22 B6 04 00 00 00 00
 26.047936 1  7AF             Rx   d 8 10 0A 62 B6 04 E5 FC 01
 26.055722 1  7A7             Tx   d 8 30 08 0A 00 00 00 00 00
 26.072738 1  7A7             Tx   d 8 30 08 0A 00 00 00 00 00
 26.108789 1  7AF             Rx   d 8 21 01 00 20 00 00 00 00
 26.323800 1  7A7             Tx   d 8 03 22 B6 05 00 00 00 00
 26.327947 1  7AF             Rx   d 8 10 09 62 B6 05 FF FF 00
 26.346802 1  7A7             Tx   d 8 30 08 0A 00 00 00 00 00
 26.351451 1  7A7             Tx   d 8 30 08 0A 00 00 00 00 00
 26.398526 1  7AF             Rx   d 8 21 00 00 00 00 00 00 00
 26.582698 1  7A7             Tx   d 8 03 22 F1 7D 00 00 00 00
 26.587928 1  7AF             Rx   d 8 03 7F 22 12 00 00 00 00
 26.772846 1  7A7             Tx   d 8 03 22 F1 7F 00 00 00 00
 26.778051 1  7AF             Rx   d 8 03 7F 22 12 00 00 00 00
 26.979852 1  7A7             Tx   d 8 03 22 F1 01 00 00 00 00
 26.988079 1  7AF             Rx   d 8 03 7F 22 12 00 00 00 00
 27.178674 1  7A7             Tx   d 8 04 22 F1 00 32 00 00 00
 27.187917 1  7AF             Rx   d 8 03 7F 22 13 00 00 00 00
 27.386470 1  7A7             Tx   d 8 03 22 F1 88 00 00 00 00
 27.398374 1  7AF             Rx   d 8 03 7F 22 12 00 00 00 00
 27.587965 1  7A7             Tx   d 8 04 22 F1 87 21 00 00 00
 27.598056 1  7AF             Rx   d 8 03 7F 22 13 00 00 00 00
 27.794649 1  7A7             Tx   d 8 03 22 F1 85 00 00 00 00
 27.798043 1  7AF             Rx   d 8 03 7F 22 12 00 00 00 00
 27.994919 1  7A7             Tx   d 8 04 22 F1 8B 12 00 00 00
 27.998083 1  7AF             Rx   d 8 03 7F 22 13 00 00 00 00
 28.190010 1  7A7             Tx   d 8 03 22 F1 89 00 00 00 00
 28.198440 1  7AF             Rx   d 8 03 7F 22 12 00 00 00 00
 28.381043 1  7A7             Tx   d 8 04 22 F1 8C 12 00 00 00
 28.387967 1  7AF             Rx   d 8 03 7F 22 13 00 00 00 00
 28.586205 1  7A7             Tx   d 8 03 22 F1 99 00 00 00 00
 28.598019 1  7AF             Rx   d 8 03 7F 22 12 00 00 00 00
 28.806139 1  7A7             Tx   d 8 04 22 F1 91 12 00 00 00
 28.817994 1  7AF             Rx   d 8 03 7F 22 13 00 00 00 00
 29.013456 1  7A7             Tx   d 8 03 22 F1 94 00 00 00 00
 29.018044 1  7AF             Rx   d 8 03 7F 22 12 00 00 00 00
 29.214477 1  7A7             Tx   d 8 04 22 F1 93 12 00 00 00
 29.217904 1  7AF             Rx   d 8 03 7F 22 13 00 00 00 00
 29.417047 1  7A7             Tx   d 8 03 22 F1 88 00 00 00 00
 29.427925 1  7AF             Rx   d 8 03 7F 22 12 00 00 00 00
 29.616990 1  7A7             Tx   d 8 04 22 F1 8B 12 00 00 00
 29.627702 1  7AF             Rx   d 8 03 7F 22 13 00 00 00 00
 29.825562 1  7A7             Tx   d 8 03 22 F1 A5 00 00 00 00
 29.837944 1  7AF             Rx   d 8 03 7F 22 12 00 00 00 00
 30.037009 1  7A7             Tx   d 8 04 22 F1 A0 12 00 00 00
 30.047693 1  7AF             Rx   d 8 03 7F 22 13 00 00 00 00
 30.245777 1  7A7             Tx   d 8 03 22 F1 A7 00 00 00 00
 30.257895 1  7AF             Rx   d 8 03 7F 22 12 00 00 00 00
 30.480362 1  7A7             Tx   d 8 04 22 F1 A1 12 00 00 00
 30.487695 1  7AF             Rx   d 8 03 7F 22 13 00 00 00 00
 30.686952 1  7A7             Tx   d 8 03 22 F1 B5 00 00 00 00
 30.697917 1  7AF             Rx   d 8 03 7F 22 12 00 00 00 00
 30.900657 1  7A7             Tx   d 8 04 22 F1 B0 12 00 00 00
 30.907760 1  7AF             Rx   d 8 03 7F 22 13 00 00 00 00
 31.103747 1  7A7             Tx   d 8 03 22 F1 98 00 00 00 00
 31.107743 1  7AF             Rx   d 8 03 7F 22 12 00 00 00 00
 31.304832 1  7A7             Tx   d 8 04 22 F1 97 12 00 00 00
 31.307832 1  7AF             Rx   d 8 03 7F 22 13 00 00 00 00
 31.500476 1  7A7             Tx   d 8 03 22 F1 C2 00 00 00 00
 31.507663 1  7AF             Rx   d 8 03 7F 22 12 00 00 00 00
 31.694471 1  7A7             Tx   d 8 04 22 F1 C1 12 00 00 00
 31.697728 1  7AF             Rx   d 8 03 7F 22 13 00 00 00 00
 31.897412 1  7A7             Tx   d 8 03 22 F1 98 00 00 00 00
 31.907738 1  7AF             Rx   d 8 03 7F 22 12 00 00 00 00
 32.100255 1  7A7             Tx   d 8 04 22 F1 97 12 00 00 00
 32.107575 1  7AF             Rx   d 8 03 7F 22 13 00 00 00 00
 32.308218 1  7A7             Tx   d 8 03 22 F1 B2 00 00 00 00
 32.318492 1  7AF             Rx   d 8 03 7F 22 12 00 00 00 00
 32.520985 1  7A7             Tx   d 8 04 22 F1 B1 12 00 00 00
 32.527538 1  7AF             Rx   d 8 03 7F 22 13 00 00 00 00
 32.712120 1  7A7             Tx   d 8 03 22 F1 EE 00 00 00 00
 32.718468 1  7AF             Rx   d 8 03 7F 22 12 00 00 00 00
 32.923077 1  7A7             Tx   d 8 04 22 F1 EF 12 00 00 00
 32.927490 1  7AF             Rx   d 8 03 7F 22 13 00 00 00 00
 33.111991 1  7A7             Tx   d 8 03 22 ED 91 00 00 00 00
 33.118464 1  7AF             Rx   d 8 03 7F 22 12 00 00 00 00
 33.320638 1  7A7             Tx   d 8 04 22 ED 90 12 00 00 00
 33.327470 1  7AF             Rx   d 8 03 7F 22 13 00 00 00 00
 33.518131 1  7A7             Tx   d 8 03 22 F1 7E 00 00 00 00
 33.527448 1  7AF             Rx   d 8 03 7F 22 12 00 00 00 00
 33.730149 1  7A7             Tx   d 8 04 22 F1 7D 12 00 00 00
 33.737643 1  7AF             Rx   d 8 03 7F 22 13 00 00 00 00
 33.922868 1  7A7             Tx   d 8 03 22 F1 DE 00 00 00 00
 33.927448 1  7AF             Rx   d 8 03 7F 22 12 00 00 00 00
 34.115347 1  7A7             Tx   d 8 04 22 F1 DD 12 00 00 00
 34.127528 1  7AF             Rx   d 8 03 7F 22 13 00 00 00 00
 34.333294 1  7A7             Tx   d 8 03 22 B6 06 00 00 00 00
 34.337631 1  7AF             Rx   d 8 03 7F 22 12 00 00 00 00
 34.549503 1  7A7             Tx   d 8 04 22 B6 02 12 00 00 00
 34.557663 1  7AF             Rx   d 8 03 7F 22 13 00 00 00 00
 34.763562 1  7A7             Tx   d 8 03 22 B6 07 00 00 00 00
 34.767535 1  7AF             Rx   d 8 03 7F 22 12 00 00 00 00
 34.975960 1  7A7             Tx   d 8 04 22 B6 03 12 00 00 00
 34.987512 1  7AF             Rx   d 8 03 7F 22 13 00 00 00 00
 35.192234 1  7A7             Tx   d 8 03 22 B6 08 00 00 00 00
 35.197580 1  7AF             Rx   d 8 03 7F 22 12 00 00 00 00
 35.405970 1  7A7             Tx   d 8 04 22 B6 04 12 00 00 00
 35.417608 1  7AF             Rx   d 8 03 7F 22 13 00 00 00 00
 35.622815 1  7A7             Tx   d 8 03 22 B6 09 00 00 00 00
 35.627334 1  7AF             Rx   d 8 03 7F 22 12 00 00 00 00
 35.836558 1  7A7             Tx   d 8 04 22 B6 05 12 00 00 00
 35.847381 1  7AF             Rx   d 8 03 7F 22 13 00 00 00 00
 36.091094 1  7A7             Tx   d 8 02 10 01 00 00 00 00 00
 36.097530 1  7AF             Rx   d 8 02 50 01 00 00 00 00 00
 36.243074 1  7A7             Tx   d 8 03 19 02 09 00 00 00 00
 36.247429 1  7AF             Rx   d 8 03 59 02 09 AA AA AA AA
 36.393762 1  7A7             Tx   d 8 03 19 02 09 00 00 00 00
 36.397510 1  7AF             Rx   d 8 03 59 02 09 AA AA AA AA
 36.542260 1  7A7             Tx   d 8 03 19 02 09 00 00 00 00
 36.547313 1  7AF             Rx   d 8 03 59 02 09 AA AA AA AA
 36.694270 1  7A7             Tx   d 8 03 19 05 09 00 00 00 00
 36.697496 1  7AF             Rx   d 8 03 59 02 09 AA AA AA AA
 36.845403 1  7A7             Tx   d 8 04 19 02 08 01 00 00 00
 36.857534 1  7AF             Rx   d 8 03 7F 19 13 00 00 00 00
 37.001896 1  7A7             Tx   d 8 03 19 01 09 00 00 00 00
 37.007194 1  7AF             Rx   d 8 03 59 02 09 AA AA AA AA
 37.149698 1  7A7             Tx   d 8 03 19 01 09 00 00 00 00
 37.157460 1  7AF             Rx   d 8 03 59 02 09 AA AA AA AA
 37.352645 1  7A7             Tx   d 8 02 10 03 00 00 00 00 00
 37.357400 1  7AF             Rx   d 8 06 50 03 00 32 01 F4 00
 37.509210 1  7A7             Tx   d 8 03 19 02 09 00 00 00 00
 37.518146 1  7AF             Rx   d 8 03 59 02 09 AA AA AA AA
 37.662163 1  7A7             Tx   d 8 03 19 02 09 00 00 00 00
 37.667084 1  7AF             Rx   d 8 03 59 02 09 AA AA AA AA
 37.809027 1  7A7             Tx   d 8 03 19 01 09 00 00 00 00
 37.817417 1  7AF             Rx   d 8 03 59 02 09 AA AA AA AA
 37.964223 1  7A7             Tx   d 8 03 19 01 09 00 00 00 00
 37.967098 1  7AF             Rx   d 8 03 59 02 09 AA AA AA AA
 38.172327 1  7A7             Tx   d 8 02 10 01 00 00 00 00 00
 38.177399 1  7AF             Rx   d 8 02 50 01 00 00 00 00 00
 38.330033 1  7A7             Tx   d 8 02 27 11 00 00 00 00 00
 38.337356 1  7AF             Rx   d 8 03 7F 27 22 00 00 00 00
 38.535192 1  7A7             Tx   d 8 02 10 03 00 00 00 00 00
 38.547253 1  7AF             Rx   d 8 06 50 03 00 32 01 F4 00
 38.691700 1  7A7             Tx   d 8 03 27 11 12 00 00 00 00
 38.697335 1  7AF             Rx   d 8 03 7F 27 13 00 00 00 00
 38.843661 1  7A7             Tx   d 8 02 27 57 00 00 00 00 00
 38.847178 1  7AF             Rx   d 8 03 7F 27 12 00 00 00 00
 39.060767 1  7A7             Tx   d 8 02 10 01 00 00 00 00 00
 39.067406 1  7AF             Rx   d 8 02 50 01 00 00 00 00 00
 39.267106 1  7A7             Tx   d 8 02 10 01 00 00 00 00 00
 39.277506 1  7AF             Rx   d 8 02 50 01 00 00 00 00 00
 39.423744 1  7A7             Tx   d 8 03 19 02 08 00 00 00 00
 39.427124 1  7AF             Rx   d 8 03 59 02 08 AA AA AA AA
 39.572482 1  7A7             Tx   d 8 03 19 02 01 00 00 00 00
 40.077872 1  7A7             Tx   d 8 03 19 01 08 00 00 00 00
 40.087092 1  7AF             Rx   d 8 03 59 02 08 AA AA AA AA
 40.234254 1  7A7             Tx   d 8 03 19 01 01 00 00 00 00
End TriggerBlock
